(1734619082.391829) vcan0 1D0#000000000000000A
(1734619082.392922) vcan0 166#D0320027
(1734619082.392933) vcan0 158#0000000000000028
(1734619082.392939) vcan0 161#000005500108002B
(1734619082.392945) vcan0 191#010090A1410012
(1734619082.394727) vcan0 164#0000C01AA8000013
(1734619082.395766) vcan0 133#00000000B6
(1734619082.395774) vcan0 136#0002000000000039
(1734619082.395780) vcan0 13A#0000000000000037
(1734619082.395786) vcan0 13F#000000050000003D
(1734619082.395792) vcan0 17C#0000000010000030
(1734619082.395798) vcan0 18E#00007A
(1734619082.395808) vcan0 294#040B0002CF5A001D
(1734619082.395814) vcan0 21E#03E83745220610
(1734619082.395821) vcan0 309#0000000000000093
(1734619082.395827) vcan0 428#01040000521C10
(1734619082.395833) vcan0 405#000004000000001A
(1734619082.397492) vcan0 183#0000000C0000103C
(1734619082.397512) vcan0 143#6B6B00FF
(1734619082.401699) vcan0 095#800007F400000026
(1734619082.401727) vcan0 039#000C
(1734619082.401733) vcan0 166#D0320036
(1734619082.404001) vcan0 244#000000012C
(1734619082.406622) vcan0 158#0000000000000037
(1734619082.406647) vcan0 161#000005500108003A
(1734619082.406663) vcan0 191#010090A1410021
(1734619082.406670) vcan0 164#0000C01AA8000022
(1734619082.406676) vcan0 133#0000000089
(1734619082.406682) vcan0 136#000200000000000C
(1734619082.406688) vcan0 13A#000000000000000A
(1734619082.406694) vcan0 13F#0000000500000000
(1734619082.406702) vcan0 17C#0000000010000003
(1734619082.406709) vcan0 18E#00004D
(1734619082.406715) vcan0 1CF#80050000002D
(1734619082.406723) vcan0 1DC#0200002A
(1734619082.406730) vcan0 183#0000000900001002
(1734619082.406736) vcan0 143#6B6B00C2
(1734619082.409126) vcan0 095#800007F400000035
(1734619082.409151) vcan0 1A4#0000000800000001
(1734619082.411738) vcan0 1AA#7FFF000000006702
(1734619082.411855) vcan0 1B0#000F0000000148
(1734619082.411862) vcan0 1D0#000000000000000A
(1734619082.411868) vcan0 166#D0320009
(1734619082.426125) vcan0 158#000000000000000A
(1734619082.429248) vcan0 244#0000000178
(1734619082.430814) vcan0 161#000005500108000D
(1734619082.430826) vcan0 039#001B
(1734619082.430832) vcan0 191#010090A1410030
(1734619082.430839) vcan0 164#0000C01AA8000031
(1734619082.430847) vcan0 133#0000000098
(1734619082.430854) vcan0 136#000200000000001B
(1734619082.430860) vcan0 13A#0000000000000019
(1734619082.430866) vcan0 13F#000000050000001F
(1734619082.430872) vcan0 17C#0000000010000012
(1734619082.430878) vcan0 18E#00005C
(1734619082.430884) vcan0 183#0000000600001014
(1734619082.430890) vcan0 143#6B6B00D1
(1734619082.430896) vcan0 095#800007F400000008
(1734619082.430904) vcan0 166#D0320018
(1734619082.430911) vcan0 158#0000000000000019
(1734619082.430918) vcan0 161#000005500108001C
(1734619082.430924) vcan0 191#010090A1410003
(1734619082.430931) vcan0 164#0000C01AA8000004
(1734619082.430939) vcan0 133#00000000A7
(1734619082.430946) vcan0 136#000200000000002A
(1734619082.430953) vcan0 13A#0000000000000028
(1734619082.430960) vcan0 13F#000000050000002E
(1734619082.430967) vcan0 17C#0000000010000021
(1734619082.430977) vcan0 18E#00006B
(1734619082.430984) vcan0 1CF#80050000003C
(1734619082.430989) vcan0 1DC#02000039
(1734619082.430995) vcan0 183#0000000400001025
(1734619082.431001) vcan0 143#6B6B00E0
(1734619082.431007) vcan0 039#002A
(1734619082.431012) vcan0 095#800007F400000017
(1734619082.431018) vcan0 1A4#0000000800000010
(1734619082.431026) vcan0 1AA#7FFF000000006810
(1734619082.431032) vcan0 1B0#000F0000000157
(1734619082.431038) vcan0 1D0#000000000000000A
(1734619082.431044) vcan0 166#D0320027
(1734619082.434546) vcan0 158#0000000000000028
(1734619082.435923) vcan0 161#000005500108002B
(1734619082.435930) vcan0 191#010090A1410012
(1734619082.435936) vcan0 164#0000C01AA8000013
(1734619082.435942) vcan0 133#00000000B6
(1734619082.435948) vcan0 136#0002000000000039
(1734619082.435956) vcan0 13A#0000000000000037
(1734619082.435963) vcan0 13F#000000050000003D
(1734619082.435969) vcan0 17C#0000000010000030
(1734619082.435976) vcan0 18E#00007A
(1734619082.435983) vcan0 294#040B0002CF5A002C
(1734619082.435989) vcan0 21E#03E8374522062F
(1734619082.435996) vcan0 183#0000000300001035
(1734619082.437460) vcan0 143#6B6B00FF
(1734619082.439540) vcan0 095#800007F400000026
(1734619082.442411) vcan0 244#0000000119
(1734619082.442608) vcan0 166#D0320036
(1734619082.442647) vcan0 039#0039
(1734619082.442656) vcan0 158#0000000000000037
(1734619082.442662) vcan0 161#000005500108003A
(1734619082.444794) vcan0 191#010090A1410021
(1734619082.444831) vcan0 164#0000C01AA8000022
(1734619082.444839) vcan0 133#0000000089
(1734619082.444846) vcan0 136#000200000000000C
(1734619082.444852) vcan0 13A#000000000000000A
(1734619082.444858) vcan0 13F#0000000500000000
(1734619082.444864) vcan0 17C#0000000010000003
(1734619082.444870) vcan0 18E#00004D
(1734619082.444876) vcan0 1CF#80050000000F
(1734619082.444882) vcan0 1DC#0200000C
(1734619082.446902) vcan0 183#0000000A00001001
(1734619082.449313) vcan0 143#6B6B00C2
(1734619082.449540) vcan0 333#0000000000001E
(1734619082.449551) vcan0 095#800007F400000035
(1734619082.449559) vcan0 1A4#000000080000002F
(1734619082.449571) vcan0 1AA#7FFF00000000682F
(1734619082.449577) vcan0 1B0#000F0000000166
(1734619082.451576) vcan0 1D0#000000000000000A
(1734619082.451678) vcan0 166#D0320009
(1734619082.454330) vcan0 158#000000000000000A
(1734619082.454432) vcan0 161#000005500108000D
(1734619082.454449) vcan0 191#010090A1410030
(1734619082.454456) vcan0 133#0000000098
(1734619082.454462) vcan0 136#000200000000001B
(1734619082.454468) vcan0 13A#0000000000000019
(1734619082.454479) vcan0 13F#000000050000001F
(1734619082.454485) vcan0 164#0000C01AA8000031
(1734619082.454491) vcan0 17C#0000000010000012
(1734619082.454496) vcan0 18E#00005C
(1734619082.455663) vcan0 244#00000001EB
(1734619082.455762) vcan0 183#0000000700001013
(1734619082.455775) vcan0 039#000C
(1734619082.457332) vcan0 143#6B6B00D1
(1734619082.459296) vcan0 095#800007F400000008
(1734619082.461245) vcan0 166#D0320018
(1734619082.463415) vcan0 158#0000000000000019
(1734619082.463525) vcan0 161#000005500108001C
(1734619082.463534) vcan0 191#010090A1410003
(1734619082.463545) vcan0 164#0000C01AA8000004
(1734619082.463553) vcan0 133#00000000A7
(1734619082.463561) vcan0 136#000200000000002A
(1734619082.465721) vcan0 13A#0000000000000028
(1734619082.465875) vcan0 13F#000000050000002E
(1734619082.465883) vcan0 17C#0000000010000021
(1734619082.465890) vcan0 18E#00006B
(1734619082.465897) vcan0 1CF#80050000001E
(1734619082.465904) vcan0 1DC#0200001B
(1734619082.465912) vcan0 320#000012
(1734619082.465920) vcan0 324#7465000000000E1A
(1734619082.465926) vcan0 183#0000000500001024
(1734619082.465933) vcan0 37C#FD00FD00097F001A
(1734619082.467312) vcan0 143#6B6B00E0
(1734619082.467504) vcan0 244#000000016C
(1734619082.468795) vcan0 305#8026
(1734619082.468890) vcan0 095#800007F400000017
(1734619082.470303) vcan0 1A4#000000080000003E
(1734619082.470408) vcan0 1AA#7FFF00000000673F
(1734619082.470417) vcan0 1B0#000F0000000175
(1734619082.470423) vcan0 1D0#000000000000000A
(1734619082.471739) vcan0 166#D0320027
(1734619082.474707) vcan0 158#0000000000000028
(1734619082.477117) vcan0 161#000005500108002B
(1734619082.477133) vcan0 191#010090A1410012
(1734619082.477143) vcan0 18E#00007A
(1734619082.477154) vcan0 133#00000000B6
(1734619082.477162) vcan0 136#0002000000000039
(1734619082.477171) vcan0 13A#0000000000000037
(1734619082.477179) vcan0 13F#000000050000003D
(1734619082.477188) vcan0 164#0000C01AA8000013
(1734619082.477196) vcan0 17C#0000000010000030
(1734619082.477204) vcan0 294#040B0002CF5A003B
(1734619082.477212) vcan0 21E#03E8374522063E
(1734619082.477219) vcan0 039#001B
(1734619082.477236) vcan0 183#0000000B0000103D
(1734619082.477242) vcan0 143#6B6B00FF
(1734619082.478538) vcan0 244#0000000168
(1734619082.479067) vcan0 095#800007F400000026
(1734619082.481606) vcan0 166#D0320036
(1734619082.483463) vcan0 158#0000000000000037
(1734619082.483577) vcan0 161#000005500108003A
(1734619082.483585) vcan0 191#010090A1410021
(1734619082.483591) vcan0 164#0000C01AA8000022
(1734619082.483597) vcan0 133#0000000089
(1734619082.483604) vcan0 136#000200000000000C
(1734619082.483610) vcan0 13A#000000000000000A
(1734619082.485182) vcan0 13F#0000000500000000
(1734619082.485288) vcan0 17C#0000000010000003
(1734619082.485296) vcan0 18E#00004D
(1734619082.485303) vcan0 1CF#80050000002D
(1734619082.485309) vcan0 1DC#0200002A
(1734619082.485315) vcan0 183#0000000800001003
(1734619082.487372) vcan0 143#6B6B00C2
(1734619082.489089) vcan0 095#800007F400000035
(1734619082.489188) vcan0 1A4#0000000800000001
(1734619082.489822) vcan0 244#000000011D
(1734619082.490701) vcan0 1AA#7FFF000000006702
(1734619082.490870) vcan0 1B0#000F0000000148
(1734619082.490882) vcan0 039#002A
(1734619082.490892) vcan0 1D0#000000000000000A
(1734619082.492999) vcan0 166#D0320009
(1734619082.493422) vcan0 158#000000000000000A
(1734619082.493430) vcan0 161#000005500108000D
(1734619082.493437) vcan0 191#010090A1410030
(1734619082.493444) vcan0 164#0000C01AA8000031
(1734619082.493453) vcan0 133#0000000098
(1734619082.493459) vcan0 136#000200000000001B
(1734619082.495051) vcan0 13A#0000000000000019
(1734619082.495216) vcan0 13F#000000050000001F
(1734619082.495705) vcan0 17C#0000000010000012
(1734619082.495887) vcan0 18E#00005C
(1734619082.495900) vcan0 309#00000000000000A2
(1734619082.495911) vcan0 183#0000000D0000101D
(1734619082.497680) vcan0 143#6B6B00D1
(1734619082.499288) vcan0 095#800007F400000008
(1734619082.501168) vcan0 166#D0320018
(1734619082.501032) vcan0 244#0000000145
(1734619082.502709) vcan0 158#0000000000000019
(1734619082.502821) vcan0 161#000005500108001C
(1734619082.502828) vcan0 191#010090A1410003
(1734619082.504240) vcan0 164#0000C01AA8000004
(1734619082.504353) vcan0 133#00000000A7
(1734619082.504369) vcan0 136#000200000000002A
(1734619082.504375) vcan0 13A#0000000000000028
(1734619082.504383) vcan0 13F#000000050000002E
(1734619082.504391) vcan0 17C#0000000010000021
(1734619082.504397) vcan0 18E#00006B
(1734619082.506135) vcan0 1CF#80050000003C
(1734619082.506579) vcan0 1DC#02000039
(1734619082.506681) vcan0 183#0000000900001020
(1734619082.506688) vcan0 039#0039
(1734619082.506694) vcan0 143#6B6B00E0
(1734619082.509051) vcan0 095#800007F400000017
(1734619082.512784) vcan0 1A4#0000000800000010
(1734619082.512832) vcan0 1AA#7FFF000000006810
(1734619082.512839) vcan0 1B0#000F0000000157
(1734619082.512845) vcan0 1D0#000000000000000A
(1734619082.512852) vcan0 166#D0320027
(1734619082.512859) vcan0 158#0000000000000028
(1734619082.512865) vcan0 161#000005500108002B
(1734619082.512871) vcan0 191#010090A1410012
(1734619082.514761) vcan0 244#00000001F0
(1734619082.514859) vcan0 188#00000000
(1734619082.515108) vcan0 164#0000C01AA8000013
(1734619082.515124) vcan0 133#00000000B6
(1734619082.515130) vcan0 136#0002000000000039
(1734619082.515136) vcan0 13A#0000000000000037
(1734619082.515142) vcan0 13F#000000050000003D
(1734619082.515148) vcan0 17C#0000000010000030
(1734619082.515452) vcan0 18E#00007A
(1734619082.515543) vcan0 294#040B0002CF5A000E
(1734619082.515553) vcan0 21E#03E83745220601
(1734619082.518405) vcan0 183#0000000600001032
(1734619082.518526) vcan0 143#6B6B00FF
(1734619082.518537) vcan0 095#800007F400000026
(1734619082.518544) vcan0 5A1#9600000000006210
(1734619082.520607) vcan0 039#000C
(1734619082.522607) vcan0 166#D0320036
(1734619082.522779) vcan0 158#0000000000000037
(1734619082.522793) vcan0 161#000005500108003A
(1734619082.522805) vcan0 191#010090A1410021
(1734619082.525268) vcan0 164#0000C01AA8000022
(1734619082.525372) vcan0 133#0000000089
(1734619082.525380) vcan0 136#000200000000000C
(1734619082.525388) vcan0 13A#000000000000000A
(1734619082.525395) vcan0 13F#0000000500000000
(1734619082.525401) vcan0 17C#0000000010000003
(1734619082.525407) vcan0 18E#00004D
(1734619082.525414) vcan0 1CF#80050000000F
(1734619082.525420) vcan0 1DC#0200000C
(1734619082.525426) vcan0 183#0000000C0000100F
(1734619082.527492) vcan0 143#6B6B00C2
(1734619082.527633) vcan0 244#0000000126
(1734619082.529497) vcan0 095#800007F400000035
(1734619082.529601) vcan0 1A4#000000080000002F
(1734619082.529608) vcan0 1AA#7FFF00000000682F
(1734619082.529614) vcan0 1B0#000F0000000166
(1734619082.531083) vcan0 1D0#000000000000000A
(1734619082.531697) vcan0 166#D0320009
(1734619082.533106) vcan0 158#000000000000000A
(1734619082.533670) vcan0 161#000005500108000D
(1734619082.533684) vcan0 191#010090A1410030
(1734619082.533692) vcan0 164#0000C01AA8000031
(1734619082.533702) vcan0 133#0000000098
(1734619082.533708) vcan0 136#000200000000001B
(1734619082.533716) vcan0 13A#0000000000000019
(1734619082.535004) vcan0 13F#000000050000001F
(1734619082.535125) vcan0 17C#0000000010000012
(1734619082.535133) vcan0 18E#00005C
(1734619082.535146) vcan0 039#001B
(1734619082.536488) vcan0 183#0000000900001011
(1734619082.536506) vcan0 143#6B6B00D1
(1734619082.539320) vcan0 095#800007F400000008
(1734619082.540373) vcan0 244#000000019F
(1734619082.542616) vcan0 166#D0320018
(1734619082.542644) vcan0 158#0000000000000019
(1734619082.542651) vcan0 161#000005500108001C
(1734619082.544137) vcan0 191#010090A1410003
(1734619082.544589) vcan0 164#0000C01AA8000004
(1734619082.544598) vcan0 133#00000000A7
(1734619082.544604) vcan0 136#000200000000002A
(1734619082.544610) vcan0 13A#0000000000000028
(1734619082.544616) vcan0 13F#000000050000002E
(1734619082.544623) vcan0 17C#0000000010000021
(1734619082.544629) vcan0 18E#00006B
(1734619082.544635) vcan0 1CF#80050000001E
(1734619082.544655) vcan0 1DC#0200001B
(1734619082.546423) vcan0 183#0000000600001023
(1734619082.546446) vcan0 143#6B6B00E0
(1734619082.547652) vcan0 333#0000000000002D
(1734619082.547760) vcan0 039#002A
(1734619082.549385) vcan0 095#800007F400000017
(1734619082.549487) vcan0 1A4#000000080000003E
(1734619082.549494) vcan0 1AA#7FFF00000000673F
(1734619082.551233) vcan0 1B0#000F0000000175
(1734619082.551334) vcan0 1D0#000000000000000A
(1734619082.551343) vcan0 166#D0320027
(1734619082.551568) vcan0 244#00000001ED
(1734619082.552983) vcan0 158#0000000000000028
(1734619082.553111) vcan0 161#000005500108002B
(1734619082.553119) vcan0 191#010090A1410012
(1734619082.553125) vcan0 133#00000000B6
(1734619082.555122) vcan0 136#0002000000000039
(1734619082.555539) vcan0 13A#0000000000000037
(1734619082.555547) vcan0 13F#000000050000003D
(1734619082.555554) vcan0 164#0000C01AA8000013
(1734619082.555560) vcan0 17C#0000000010000030
(1734619082.555566) vcan0 18E#00007A
(1734619082.555572) vcan0 294#040B0002CF5A001D
(1734619082.555578) vcan0 21E#03E83745220610
(1734619082.558192) vcan0 183#0000000C0000103C
(1734619082.559312) vcan0 143#6B6B00FF
(1734619082.559324) vcan0 095#800007F400000026
(1734619082.562111) vcan0 166#D0320036
(1734619082.562443) vcan0 039#0039
(1734619082.562547) vcan0 158#0000000000000037
(1734619082.562554) vcan0 161#000005500108003A
(1734619082.565391) vcan0 191#010010A1410029
(1734619082.565413) vcan0 164#0000C01AA8000022
(1734619082.565419) vcan0 133#0000000089
(1734619082.565426) vcan0 136#000200000000000C
(1734619082.565434) vcan0 13A#000000000000000A
(1734619082.565440) vcan0 13F#0000000500000000
(1734619082.565446) vcan0 17C#0000000010000003
(1734619082.565452) vcan0 18E#00004D
(1734619082.565458) vcan0 1CF#80050000002D
(1734619082.565464) vcan0 1DC#0200002A
(1734619082.565470) vcan0 320#000021
(1734619082.565476) vcan0 324#7465000000000E29
(1734619082.565482) vcan0 183#0000000900001002
(1734619082.565946) vcan0 244#000000012B
(1734619082.568611) vcan0 37C#FD00FD00097F0029
(1734619082.568633) vcan0 143#6B6B00C2
(1734619082.568639) vcan0 095#800007F800000031
(1734619082.571867) vcan0 1A4#0000000800000001
(1734619082.571973) vcan0 1AA#7FFF000000006702
(1734619082.571980) vcan0 1B0#000F0000000148
(1734619082.571986) vcan0 1D0#000000000000000A
(1734619082.571992) vcan0 166#D0320009
(1734619082.573391) vcan0 158#000000000000000A
(1734619082.573498) vcan0 161#000005500108000D
(1734619082.573506) vcan0 191#010010A1410038
(1734619082.573513) vcan0 133#0000000098
(1734619082.573519) vcan0 136#000200000000001B
(1734619082.575002) vcan0 13A#0000000000000019
(1734619082.575119) vcan0 13F#000000050000001F
(1734619082.575127) vcan0 164#0000C01AA8000031
(1734619082.575132) vcan0 039#000C
(1734619082.575139) vcan0 17C#0000000010000012
(1734619082.575144) vcan0 18E#00005C
(1734619082.575150) vcan0 305#8035
(1734619082.576812) vcan0 183#0000000E0000101C
(1734619082.576920) vcan0 143#6B6B00D1
(1734619082.577540) vcan0 244#0000000198
(1734619082.579906) vcan0 095#800007F800000004
(1734619082.581766) vcan0 166#D0320018
(1734619082.589366) vcan0 158#0000000000000019
(1734619082.589480) vcan0 161#000005500108001C
(1734619082.589487) vcan0 191#010010A141000B
(1734619082.589493) vcan0 164#0000C01AA8000004
(1734619082.589499) vcan0 133#00000000A7
(1734619082.589505) vcan0 136#000200000000002A
(1734619082.589511) vcan0 13A#0000000000000028
(1734619082.589517) vcan0 13F#000000050000002E
(1734619082.589525) vcan0 17C#0000000010000021
(1734619082.589532) vcan0 18E#00006B
(1734619082.589538) vcan0 1CF#80050000003C
(1734619082.589544) vcan0 1DC#02000039
(1734619082.589549) vcan0 183#0000000A0000102F
(1734619082.589555) vcan0 143#6B6B00E0
(1734619082.589561) vcan0 095#800007F800000013
(1734619082.589567) vcan0 039#001B
(1734619082.589573) vcan0 1A4#0000000800000010
(1734619082.589580) vcan0 1AA#7FFF000000006810
(1734619082.589587) vcan0 1B0#000F0000000157
(1734619082.591474) vcan0 1D0#000000000000000A
(1734619082.591578) vcan0 166#D0320027
(1734619082.591865) vcan0 244#0000000176
(1734619082.593637) vcan0 158#0000000000000028
(1734619082.593805) vcan0 161#000005500108002B
(1734619082.593818) vcan0 191#010010A141001A
(1734619082.593828) vcan0 164#0000C01AA8000013
(1734619082.593839) vcan0 133#00000000B6
(1734619082.593850) vcan0 136#0002000000000039
(1734619082.593861) vcan0 13A#0000000000000037
(1734619082.595342) vcan0 13F#000000050000003D
(1734619082.595444) vcan0 17C#0000000010000030
(1734619082.595451) vcan0 18E#00007A
(1734619082.595458) vcan0 294#040B0002CF5A002C
(1734619082.595465) vcan0 21E#03E8374522062F
(1734619082.595471) vcan0 309#00000000000000B1
(1734619082.600229) vcan0 183#0000000700001031
(1734619082.600260) vcan0 143#6B6B00FF
(1734619082.600266) vcan0 095#800007F800000022
(1734619082.602951) vcan0 244#00000001BB
(1734619082.603896) vcan0 166#D0320036
(1734619082.603919) vcan0 158#0000000000000037
(1734619082.603926) vcan0 161#000005500108003A
(1734619082.603932) vcan0 191#010010A1410029
(1734619082.603938) vcan0 164#0000C01AA8000022
(1734619082.603952) vcan0 133#0000000089
(1734619082.603959) vcan0 136#000200000000000C
(1734619082.603966) vcan0 13A#000000000000000A
(1734619082.603973) vcan0 039#002A
(1734619082.605380) vcan0 13F#0000000500000000
(1734619082.605505) vcan0 17C#0000000010000003
(1734619082.605513) vcan0 18E#00004D
(1734619082.605519) vcan0 1CF#80050000000F
(1734619082.605526) vcan0 1DC#0200000C
(1734619082.605532) vcan0 183#0000000D0000100E
(1734619082.607521) vcan0 143#6B6B00C2
(1734619082.609383) vcan0 095#800007F800000031
(1734619082.609536) vcan0 1A4#000000080000002F
(1734619082.609545) vcan0 1AA#7FFF00000000682F
(1734619082.609551) vcan0 1B0#000F0000000166
(1734619082.612865) vcan0 1D0#000000000000000A
(1734619082.613368) vcan0 166#D0320009
(1734619082.613474) vcan0 158#000000000000000A
(1734619082.613482) vcan0 161#000005500108000D
(1734619082.613488) vcan0 191#010010A1410038
(1734619082.613494) vcan0 133#0000000098
(1734619082.613500) vcan0 136#000200000000001B
(1734619082.614266) vcan0 244#000000011B
(1734619082.615001) vcan0 13A#0000000000000019
(1734619082.615110) vcan0 13F#000000050000001F
(1734619082.615118) vcan0 164#0000C01AA8000031
(1734619082.615124) vcan0 17C#0000000010000012
(1734619082.615131) vcan0 18E#00005C
(1734619082.617455) vcan0 183#0000000900001011
(1734619082.617561) vcan0 143#6B6B00D1
(1734619082.617569) vcan0 039#0039
(1734619082.619368) vcan0 095#800007F400000008
(1734619082.622805) vcan0 166#D0320018
(1734619082.622965) vcan0 158#0000000000000019
(1734619082.622978) vcan0 161#000005500108001C
(1734619082.622986) vcan0 191#010010A141000B
(1734619082.629010) vcan0 244#0000000128
(1734619082.629256) vcan0 164#0000C01AA8000004
(1734619082.629279) vcan0 133#00000000A7
(1734619082.629288) vcan0 136#000200000000002A
(1734619082.629295) vcan0 13A#0000000000000028
(1734619082.629302) vcan0 13F#000000050000002E
(1734619082.629308) vcan0 17C#0000000010000021
(1734619082.629314) vcan0 18E#00006B
(1734619082.629320) vcan0 1CF#80050000001E
(1734619082.629327) vcan0 1DC#0200001B
(1734619082.629334) vcan0 183#0000000E0000102B
(1734619082.629341) vcan0 143#6B6B00E0
(1734619082.629348) vcan0 095#800007F400000017
(1734619082.629354) vcan0 1A4#000000080000003E
(1734619082.629361) vcan0 1AA#7FFF00000000673F
(1734619082.630685) vcan0 1B0#000F0000000175
(1734619082.630708) vcan0 1D0#000000000000000A
(1734619082.632279) vcan0 166#D0320027
(1734619082.632399) vcan0 158#0000000000000028
(1734619082.633929) vcan0 161#000005500108002B
(1734619082.634032) vcan0 039#000C
(1734619082.634040) vcan0 191#010010A141001A
(1734619082.634046) vcan0 133#00000000B6
(1734619082.634052) vcan0 136#0002000000000039
(1734619082.634058) vcan0 13A#0000000000000037
(1734619082.634064) vcan0 13F#000000050000003D
(1734619082.634070) vcan0 164#0000C01AA8000013
(1734619082.635317) vcan0 17C#0000000010000030
(1734619082.635425) vcan0 18E#00007A
(1734619082.635432) vcan0 294#040B0002CF5A003B
(1734619082.635438) vcan0 21E#03E8374522063E
(1734619082.640644) vcan0 244#0000000160
(1734619082.640705) vcan0 183#0000000A0000103E
(1734619082.640736) vcan0 143#6B6B00FF
(1734619082.640748) vcan0 095#800007F400000026
(1734619082.641995) vcan0 166#D0320036
(1734619082.643477) vcan0 158#0000000000000037
(1734619082.643503) vcan0 161#000005500108003A
(1734619082.643509) vcan0 191#010010A1410029
(1734619082.643515) vcan0 164#0000C01AA8000022
(1734619082.643521) vcan0 133#0000000089
(1734619082.643527) vcan0 136#000200000000000C
(1734619082.644966) vcan0 13A#000000000000000A
(1734619082.644996) vcan0 13F#0000000500000000
(1734619082.645002) vcan0 17C#0000000010000003
(1734619082.645009) vcan0 18E#00004D
(1734619082.645015) vcan0 1CF#80050000002D
(1734619082.645021) vcan0 1DC#0200002A
(1734619082.646814) vcan0 183#0000000700001004
(1734619082.646846) vcan0 143#6B6B00C2
(1734619082.648582) vcan0 333#0000000000003C
(1734619082.648706) vcan0 095#800007F400000035
(1734619082.651043) vcan0 1A4#0000000800000001
(1734619082.651403) vcan0 1AA#7FFF000000006801
(1734619082.651493) vcan0 1B0#000F0000000148
(1734619082.651501) vcan0 1D0#000000000000000A
(1734619082.651509) vcan0 166#D0320009
(1734619082.651515) vcan0 039#001B
(1734619082.652758) vcan0 244#00000001D4
(1734619082.653466) vcan0 158#000000000000000A
(1734619082.653555) vcan0 161#000005500108000D
(1734619082.653562) vcan0 191#010010A1410038
(1734619082.653569) vcan0 133#0000000098
(1734619082.653584) vcan0 136#000200000000001B
(1734619082.653591) vcan0 13A#0000000000000019
(1734619082.655253) vcan0 13F#000000050000001F
(1734619082.655352) vcan0 164#0000C01AA8000031
(1734619082.655360) vcan0 17C#0000000010000012
(1734619082.655367) vcan0 18E#00005C
(1734619082.657079) vcan0 183#0000000D0000101D
(1734619082.658385) vcan0 143#6B6B00D1
(1734619082.658491) vcan0 095#800007F800000004
(1734619082.661811) vcan0 166#D0320018
(1734619082.665702) vcan0 158#0000000000000019
(1734619082.667564) vcan0 244#00000001A2
(1734619082.667622) vcan0 161#000005500108001C
(1734619082.667630) vcan0 191#010010A141000B
(1734619082.667636) vcan0 164#0000C01AA8000004
(1734619082.667642) vcan0 133#00000000A7
(1734619082.667648) vcan0 136#000200000000002A
(1734619082.667654) vcan0 13A#0000000000000028
(1734619082.667661) vcan0 13F#000000050000002E
(1734619082.667667) vcan0 17C#0000000010000021
(1734619082.667673) vcan0 18E#00006B
(1734619082.667679) vcan0 1CF#80050000003C
(1734619082.667687) vcan0 1DC#02000039
(1734619082.667693) vcan0 320#000030
(1734619082.667699) vcan0 324#7465000000000E38
(1734619082.667705) vcan0 183#0000000900001020
(1734619082.667712) vcan0 37C#FD00FD00097F0038
(1734619082.667719) vcan0 039#002A
(1734619082.667725) vcan0 40C#0000000004000013
(1734619082.667732) vcan0 454#23EF18
(1734619082.667740) vcan0 143#6B6B00E0
(1734619082.669326) vcan0 095#800007F800000013
(1734619082.669420) vcan0 1A4#0000000800000010
(1734619082.669428) vcan0 1AA#7FFF000000006810
(1734619082.670912) vcan0 1B0#000F0000000157
(1734619082.671017) vcan0 1D0#000000000000000A
(1734619082.671025) vcan0 166#D0320027
(1734619082.672359) vcan0 158#0000000000000028
(1734619082.672467) vcan0 161#000005500108002B
(1734619082.674129) vcan0 191#010010A141001A
(1734619082.675258) vcan0 133#00000000B6
(1734619082.675267) vcan0 136#0002000000000039
(1734619082.675273) vcan0 13A#0000000000000037
(1734619082.675281) vcan0 13F#000000050000003D
(1734619082.675288) vcan0 164#0000C01AA8000013
(1734619082.675302) vcan0 17C#0000000010000030
(1734619082.675308) vcan0 18E#00007A
(1734619082.675313) vcan0 294#040B0002CF5A000E
(1734619082.675319) vcan0 21E#03E83745220601
(1734619082.676657) vcan0 183#0000000600001032
(1734619082.676769) vcan0 143#6B6B00FF
(1734619082.678960) vcan0 095#800007F800000022
(1734619082.678987) vcan0 039#0039
(1734619082.679453) vcan0 244#0000000106
(1734619082.680247) vcan0 305#8008
(1734619082.681930) vcan0 166#D0320036
(1734619082.684387) vcan0 158#0000000000000037
(1734619082.684495) vcan0 161#000005500108003A
(1734619082.684503) vcan0 191#010010A1410029
(1734619082.684512) vcan0 164#0000C01AA8000022
(1734619082.684518) vcan0 133#0000000089
(1734619082.684525) vcan0 136#000200000000000C
(1734619082.684531) vcan0 13A#000000000000000A
(1734619082.684538) vcan0 13F#0000000500000000
(1734619082.684545) vcan0 17C#0000000010000003
(1734619082.684551) vcan0 18E#00004D
(1734619082.684557) vcan0 1CF#80050000000F
(1734619082.686017) vcan0 1DC#0200000C
(1734619082.686120) vcan0 183#0000000C0000100F
(1734619082.688339) vcan0 143#6B6B00C2
(1734619082.688442) vcan0 095#800007F800000031
(1734619082.691783) vcan0 244#0000000193
(1734619082.691817) vcan0 1A4#000000080000002F
(1734619082.691951) vcan0 1AA#7FFF00000000682F
(1734619082.691959) vcan0 1B0#000F0000000166
(1734619082.691965) vcan0 1D0#000000000000000A
(1734619082.691976) vcan0 166#D0320009
(1734619082.693486) vcan0 158#000000000000000A
(1734619082.693601) vcan0 161#000005500108000D
(1734619082.693613) vcan0 191#010010A1410038
(1734619082.693620) vcan0 164#0000C01AA8000031
(1734619082.693628) vcan0 133#0000000098
(1734619082.693636) vcan0 136#000200000000001B
(1734619082.693643) vcan0 039#000C
(1734619082.695090) vcan0 13A#0000000000000019
(1734619082.695113) vcan0 13F#000000050000001F
(1734619082.695120) vcan0 17C#0000000010000012
(1734619082.695126) vcan0 18E#00005C
(1734619082.695133) vcan0 309#0000000000000084
(1734619082.695146) vcan0 428#01040000521C2F
(1734619082.696555) vcan0 405#0000040000000029
(1734619082.696661) vcan0 183#0000000900001011
(1734619082.696669) vcan0 143#6B6B00D1
(1734619082.699798) vcan0 095#800007F800000004
(1734619082.701492) vcan0 166#D0320018
(1734619082.702622) vcan0 244#0000000130
(1734619082.703192) vcan0 158#0000000000000019
(1734619082.703695) vcan0 161#000005500108001C
(1734619082.703789) vcan0 191#010010A141000B
(1734619082.703805) vcan0 164#0000C01AA8000004
(1734619082.703811) vcan0 133#00000000A7
(1734619082.703818) vcan0 136#000200000000002A
(1734619082.703824) vcan0 13A#0000000000000028
(1734619082.705150) vcan0 13F#000000050000002E
(1734619082.705586) vcan0 17C#0000000010000021
(1734619082.705596) vcan0 18E#00006B
(1734619082.705602) vcan0 1CF#80050000001E
(1734619082.705608) vcan0 1DC#0200001B
(1734619082.705614) vcan0 183#0000000E0000102B
(1734619082.706774) vcan0 143#6B6B00E0
(1734619082.708862) vcan0 095#800007F800000013
(1734619082.708979) vcan0 039#001B
(1734619082.710476) vcan0 1A4#000000080000003E
(1734619082.710502) vcan0 1AA#7FFF00000000673F
(1734619082.710509) vcan0 1B0#000F0000000175
(1734619082.710516) vcan0 1D0#000000000000000A
(1734619082.713027) vcan0 166#D0320027
(1734619082.713653) vcan0 158#0000000000000028
(1734619082.713666) vcan0 161#000005500108002B
(1734619082.713672) vcan0 191#010010A141001A
(1734619082.713678) vcan0 164#0000C01AA8000013
(1734619082.713684) vcan0 133#00000000B6
(1734619082.713690) vcan0 136#0002000000000039
(1734619082.714579) vcan0 244#000000013E
(1734619082.715211) vcan0 13A#0000000000000037
(1734619082.715316) vcan0 13F#000000050000003D
(1734619082.715323) vcan0 17C#0000000010000030
(1734619082.715329) vcan0 18E#00007A
(1734619082.715335) vcan0 294#040B0002CF5A001D
(1734619082.715342) vcan0 21E#03E83745220610
(1734619082.722468) vcan0 183#0000000A0000103E
(1734619082.722629) vcan0 143#6B6B00FF
(1734619082.722642) vcan0 095#800007F400000026
(1734619082.722652) vcan0 166#D0320036
(1734619082.722663) vcan0 158#0000000000000037
(1734619082.722674) vcan0 161#000005500108003A
(1734619082.722684) vcan0 039#002A
(1734619082.724852) vcan0 191#010010A1410029
(1734619082.724868) vcan0 164#0000C01AA8000022
(1734619082.724877) vcan0 133#0000000089
(1734619082.724885) vcan0 136#000200000000000C
(1734619082.724891) vcan0 13A#000000000000000A
(1734619082.724898) vcan0 13F#0000000500000000
(1734619082.724905) vcan0 17C#0000000010000003
(1734619082.724913) vcan0 18E#00004D
(1734619082.724920) vcan0 1CF#80050000002D
(1734619082.724927) vcan0 1DC#0200002A
(1734619082.726802) vcan0 183#0000000F0000100C
(1734619082.726834) vcan0 143#6B6B00C2
(1734619082.728495) vcan0 095#800007F400000035
(1734619082.729623) vcan0 244#000000011E
(1734619082.730519) vcan0 1A4#0000000800000001
(1734619082.730630) vcan0 1AA#7FFF000000006801
(1734619082.730638) vcan0 1B0#000F0000000148
(1734619082.730645) vcan0 1D0#000000000000000A
(1734619082.732429) vcan0 166#D0320009
(1734619082.732539) vcan0 158#000000000000000A
(1734619082.732547) vcan0 161#000005500108000D
(1734619082.734102) vcan0 191#010010A1410038
(1734619082.734473) vcan0 164#0000C01AA8000031
(1734619082.734483) vcan0 133#0000000098
(1734619082.734490) vcan0 136#000200000000001B
(1734619082.734495) vcan0 13A#0000000000000019
(1734619082.734501) vcan0 13F#000000050000001F
(1734619082.734507) vcan0 17C#0000000010000012
(1734619082.734513) vcan0 18E#00005C
(1734619082.736199) vcan0 183#0000000B0000101F
(1734619082.736795) vcan0 143#6B6B00D1
(1734619082.738508) vcan0 039#0039
(1734619082.738696) vcan0 095#800007F400000008
(1734619082.741692) vcan0 244#00000001A8
(1734619082.742093) vcan0 166#D0320018
(1734619082.742656) vcan0 158#0000000000000019
(1734619082.742824) vcan0 161#000005500108001C
(1734619082.742837) vcan0 191#010010A141000B
(1734619082.744448) vcan0 164#0000C01AA8000004
(1734619082.744469) vcan0 133#00000000A7
(1734619082.744475) vcan0 136#000200000000002A
(1734619082.744481) vcan0 13A#0000000000000028
(1734619082.744487) vcan0 13F#000000050000002E
(1734619082.744493) vcan0 17C#0000000010000021
(1734619082.744499) vcan0 18E#00006B
(1734619082.744505) vcan0 1CF#80050000003C
(1734619082.746398) vcan0 1DC#02000039
(1734619082.746515) vcan0 183#0000000800001021
(1734619082.746523) vcan0 143#6B6B00E0
(1734619082.748060) vcan0 333#0000000000000F
(1734619082.748534) vcan0 095#800007F400000017
(1734619082.750481) vcan0 1A4#0000000800000010
(1734619082.750688) vcan0 1AA#7FFF000000006810
(1734619082.750697) vcan0 1B0#000F0000000157
(1734619082.750704) vcan0 1D0#000000000000000A
(1734619082.752896) vcan0 166#D0320027
(1734619082.753310) vcan0 039#000C
(1734619082.753319) vcan0 158#0000000000000028
(1734619082.753325) vcan0 161#000005500108002B
(1734619082.753332) vcan0 191#010010A141001A
(1734619082.753349) vcan0 133#00000000B6
(1734619082.753356) vcan0 136#0002000000000039
(1734619082.753583) vcan0 244#00000001CF
(1734619082.756467) vcan0 13A#0000000000000037
(1734619082.756576) vcan0 13F#000000050000003D
(1734619082.756584) vcan0 164#0000C01AA8000013
(1734619082.756590) vcan0 17C#0000000010000030
(1734619082.756596) vcan0 18E#00007A
(1734619082.756602) vcan0 294#040B0002CF5A002C
(1734619082.756608) vcan0 21E#03E8374522062F
(1734619082.756615) vcan0 183#0000000600001032
(1734619082.756622) vcan0 143#6B6B00FF
(1734619082.758584) vcan0 095#800007F400000026
(1734619082.762510) vcan0 166#D0320036
(1734619082.762706) vcan0 158#0000000000000037
(1734619082.762715) vcan0 161#000005500108003A
(1734619082.762723) vcan0 191#010010A1410029
(1734619082.764686) vcan0 164#0000C01AA8000022
(1734619082.764864) vcan0 133#0000000089
(1734619082.764874) vcan0 136#000200000000000C
(1734619082.764881) vcan0 13A#000000000000000A
(1734619082.764889) vcan0 13F#0000000500000000
(1734619082.764896) vcan0 17C#0000000010000003
(1734619082.764902) vcan0 18E#00004D
(1734619082.764909) vcan0 1CF#80050000000F
(1734619082.764915) vcan0 1DC#0200000C
(1734619082.764921) vcan0 320#000003
(1734619082.765437) vcan0 244#000000016C
(1734619082.766616) vcan0 324#7465000000000E0B
(1734619082.766727) vcan0 183#0000000400001007
(1734619082.766735) vcan0 37C#FD00FD00097F000B
(1734619082.766741) vcan0 143#6B6B00C2
(1734619082.768356) vcan0 095#800007F400000035
(1734619082.770005) vcan0 1A4#000000080000002F
(1734619082.770022) vcan0 1AA#7FFF00000000682F
(1734619082.770029) vcan0 1B0#000F0000000166
(1734619082.770035) vcan0 1D0#000000000000000A
(1734619082.771563) vcan0 039#001B
(1734619082.771685) vcan0 166#D0320009
(1734619082.773398) vcan0 158#000000000000000A
(1734619082.773584) vcan0 161#000005500108000D
(1734619082.773593) vcan0 191#010010A1410038
(1734619082.773599) vcan0 133#0000000098
(1734619082.773605) vcan0 136#000200000000001B
(1734619082.773611) vcan0 13A#0000000000000019
(1734619082.775128) vcan0 13F#000000050000001F
(1734619082.775792) vcan0 164#0000C01AA8000031
(1734619082.775806) vcan0 17C#0000000010000012
(1734619082.775817) vcan0 18E#00005C
(1734619082.775828) vcan0 183#0000000300001017
(1734619082.776359) vcan0 244#0000000137
(1734619082.777286) vcan0 143#6B6B00D1
(1734619082.778844) vcan0 095#800007F400000008
(1734619082.785791) vcan0 166#D0320018
(1734619082.787038) vcan0 158#0000000000000019
(1734619082.787439) vcan0 244#0000000141
(1734619082.787734) vcan0 161#000005500108001C
(1734619082.787904) vcan0 191#010010A141000B
(1734619082.787917) vcan0 164#0000C01AA8000004
(1734619082.787927) vcan0 133#00000000A7
(1734619082.787938) vcan0 136#000200000000002A
(1734619082.787948) vcan0 13A#0000000000000028
(1734619082.787959) vcan0 13F#000000050000002E
(1734619082.787970) vcan0 17C#0000000010000021
(1734619082.787982) vcan0 18E#00006B
(1734619082.787993) vcan0 1CF#80050000001E
(1734619082.788003) vcan0 039#002A
(1734619082.788014) vcan0 1DC#0200001B
(1734619082.788027) vcan0 183#0000000A0000102F
(1734619082.788037) vcan0 305#8017
(1734619082.788047) vcan0 143#6B6B00E0
(1734619082.790095) vcan0 095#800007F400000017
(1734619082.790827) vcan0 1A4#000000080000003E
(1734619082.791001) vcan0 1AA#7FFF00000000673F
(1734619082.791018) vcan0 1B0#000F0000000175
(1734619082.791031) vcan0 1D0#000000000000000A
(1734619082.791042) vcan0 166#D0320027
(1734619082.792504) vcan0 158#0000000000000028
(1734619082.792644) vcan0 161#000005500108002B
(1734619082.794536) vcan0 191#010010A141001A
(1734619082.796642) vcan0 164#0000C01AA8000013
(1734619082.796653) vcan0 133#00000000B6
(1734619082.796667) vcan0 136#0002000000000039
(1734619082.796674) vcan0 13A#0000000000000037
(1734619082.796680) vcan0 13F#000000050000003D
(1734619082.796686) vcan0 17C#0000000010000030
(1734619082.796692) vcan0 18E#00007A
(1734619082.796698) vcan0 294#040B0002CF5A003B
(1734619082.796707) vcan0 21E#03E8374522063E
(1734619082.796716) vcan0 309#0000000000000093
(1734619082.796723) vcan0 183#0000000700001031
(1734619082.796729) vcan0 143#6B6B00FF
(1734619082.798447) vcan0 095#800007F400000026
(1734619082.801997) vcan0 039#0039
(1734619082.802015) vcan0 166#D0320036
(1734619082.802735) vcan0 244#0000000134
(1734619082.804681) vcan0 158#0000000000000037
(1734619082.804794) vcan0 161#000005500108003A
(1734619082.804802) vcan0 191#010010A1410029
(1734619082.804811) vcan0 164#0000C01AA8000022
(1734619082.804826) vcan0 133#0000000089
(1734619082.804833) vcan0 136#000200000000000C
(1734619082.804840) vcan0 13A#000000000000000A
(1734619082.804847) vcan0 13F#0000000500000000
(1734619082.804853) vcan0 17C#0000000010000003
(1734619082.804861) vcan0 18E#00004D
(1734619082.804868) vcan0 1CF#80050000002D
(1734619082.804875) vcan0 1DC#0200002A
(1734619082.806347) vcan0 183#0000000D0000100E
(1734619082.807073) vcan0 143#6B6B00C2
(1734619082.808407) vcan0 095#800007F400000035
(1734619082.810534) vcan0 1A4#0000000800000001
(1734619082.810642) vcan0 1AA#7FFF000000006801
(1734619082.810650) vcan0 1B0#000F0000000148
(1734619082.810656) vcan0 1D0#000000000000000A
(1734619082.812489) vcan0 166#D0320009
(1734619082.812633) vcan0 158#000000000000000A
(1734619082.812642) vcan0 161#000005500108000D
(1734619082.814065) vcan0 244#00000001CB
(1734619082.814479) vcan0 191#010010A1410038
(1734619082.814537) vcan0 039#000C
(1734619082.814544) vcan0 133#0000000098
(1734619082.814551) vcan0 136#000200000000001B
(1734619082.814558) vcan0 13A#0000000000000019
(1734619082.814564) vcan0 13F#000000050000001F
(1734619082.814570) vcan0 164#0000C01AA8000031
(1734619082.814576) vcan0 17C#0000000010000012
(1734619082.814582) vcan0 18E#00005C
(1734619082.816494) vcan0 183#0000001100001018
(1734619082.816602) vcan0 143#6B6B00D1
(1734619082.820196) vcan0 095#800007F400000008
(1734619082.822410) vcan0 166#D0320018
(1734619082.822514) vcan0 158#0000000000000019
(1734619082.822524) vcan0 161#000005500108001C
(1734619082.824349) vcan0 191#010010A141000B
(1734619082.824450) vcan0 164#0000C01AA8000004
(1734619082.824459) vcan0 133#00000000A7
(1734619082.824470) vcan0 136#000200000000002A
(1734619082.824477) vcan0 13A#0000000000000028
(1734619082.824484) vcan0 13F#000000050000002E
(1734619082.824491) vcan0 17C#0000000010000021
(1734619082.824497) vcan0 18E#00006B
(1734619082.824503) vcan0 1CF#80050000003C
(1734619082.827158) vcan0 1DC#02000039
(1734619082.827736) vcan0 244#00000001F8
(1734619082.827943) vcan0 183#0000000C0000102D
(1734619082.827960) vcan0 039#001B
(1734619082.827969) vcan0 143#6B6B00E0
(1734619082.829528) vcan0 5BD#728B692D049ABA43
(1734619082.829645) vcan0 095#800007F400000017
(1734619082.829661) vcan0 1A4#0000000800000010
(1734619082.829668) vcan0 1AA#7FFF000000006810
(1734619082.829674) vcan0 1B0#000F0000000157
(1734619082.831289) vcan0 1D0#000000000000000A
(1734619082.831655) vcan0 166#D0320027
(1734619082.833569) vcan0 158#0000000000000028
(1734619082.833677) vcan0 161#000005500108002B
(1734619082.833686) vcan0 191#010010A141001A
(1734619082.833693) vcan0 164#0000C01AA8000013
(1734619082.833700) vcan0 133#00000000B6
(1734619082.833708) vcan0 136#0002000000000039
(1734619082.833714) vcan0 13A#0000000000000037
(1734619082.835081) vcan0 13F#000000050000003D
(1734619082.835475) vcan0 17C#0000000010000030
(1734619082.835483) vcan0 18E#00007A
(1734619082.835489) vcan0 294#040B0002CF5A000E
(1734619082.835496) vcan0 21E#03E83745220601
(1734619082.836819) vcan0 183#000000090000103F
(1734619082.837188) vcan0 143#6B6B00FF
(1734619082.838938) vcan0 244#000000013B
(1734619082.839459) vcan0 095#800007F400000026
(1734619082.841164) vcan0 039#002A
(1734619082.841930) vcan0 166#D0320036
(1734619082.845045) vcan0 158#0000000000000037
(1734619082.845448) vcan0 161#000005500108003A
(1734619082.845551) vcan0 191#010010A1410029
(1734619082.845558) vcan0 164#0000C01AA8000022
(1734619082.845565) vcan0 133#0000000089
(1734619082.845573) vcan0 136#000200000000000C
(1734619082.845581) vcan0 13A#000000000000000A
(1734619082.845589) vcan0 13F#0000000500000000
(1734619082.845596) vcan0 17C#0000000010000003
(1734619082.845601) vcan0 18E#00004D
(1734619082.845608) vcan0 1CF#80050000000F
(1734619082.845620) vcan0 1DC#0200000C
(1734619082.845626) vcan0 183#0000000600001005
(1734619082.848010) vcan0 143#6B6B00C2
(1734619082.848136) vcan0 333#0000000000001E
(1734619082.856427) vcan0 095#800007F400000035
(1734619082.857625) vcan0 244#00000001D3
(1734619082.859602) vcan0 1A4#000000080000002F
(1734619082.859712) vcan0 1AA#7FFF00000000682F
(1734619082.859719) vcan0 1B0#000F0000000166
(1734619082.859726) vcan0 1D0#000000000000000A
(1734619082.859732) vcan0 166#D0320009
(1734619082.859738) vcan0 158#000000000000000A
(1734619082.859744) vcan0 161#000005500108000D
(1734619082.859752) vcan0 191#010010A1410038
(1734619082.859759) vcan0 133#0000000098
(1734619082.859779) vcan0 136#000200000000001B
(1734619082.859785) vcan0 13A#0000000000000019
(1734619082.859794) vcan0 13F#000000050000001F
(1734619082.859801) vcan0 164#0000C01AA8000031
(1734619082.859807) vcan0 17C#0000000010000012
(1734619082.860388) vcan0 18E#00005C
(1734619082.860399) vcan0 039#0039
(1734619082.860406) vcan0 183#0000000C0000101E
(1734619082.860413) vcan0 143#6B6B00D1
(1734619082.860420) vcan0 095#800007F400000008
(1734619082.862483) vcan0 166#D0320018
(1734619082.862502) vcan0 158#0000000000000019
(1734619082.862511) vcan0 161#000005500108001C
(1734619082.864286) vcan0 191#010090A1410003
(1734619082.865036) vcan0 164#0000C01AA8000004
(1734619082.865044) vcan0 133#00000000A7
(1734619082.865050) vcan0 136#000200000000002A
(1734619082.865056) vcan0 13A#0000000000000028
(1734619082.865277) vcan0 13F#000000050000002E
(1734619082.865285) vcan0 17C#0000000010000021
(1734619082.865291) vcan0 18E#00006B
(1734619082.865299) vcan0 1CF#80050000001E
(1734619082.865306) vcan0 1DC#0200001B
(1734619082.865313) vcan0 320#000012
(1734619082.865320) vcan0 324#7465000000000E1A
(1734619082.865327) vcan0 37C#FD00FD00097F001A
(1734619082.867012) vcan0 183#0000001000001028
(1734619082.867482) vcan0 143#6B6B00E0
(1734619082.869111) vcan0 095#800007F400000017
(1734619082.869674) vcan0 1A4#000000080000003E
(1734619082.869851) vcan0 1AA#7FFF00000000673F
(1734619082.869859) vcan0 1B0#000F0000000175
(1734619082.869865) vcan0 1D0#000000000000000A
(1734619082.871794) vcan0 166#D0320027
(1734619082.871938) vcan0 244#00000001FC
(1734619082.872352) vcan0 158#0000000000000028
(1734619082.873893) vcan0 161#000005500108002B
(1734619082.874000) vcan0 191#010090A1410012
(1734619082.874008) vcan0 133#00000000B6
(1734619082.874014) vcan0 136#0002000000000039
(1734619082.874020) vcan0 13A#0000000000000037
(1734619082.874026) vcan0 13F#000000050000003D
(1734619082.874032) vcan0 164#0000C01AA8000013
(1734619082.875549) vcan0 17C#0000000010000030
(1734619082.875667) vcan0 18E#00007A
(1734619082.875675) vcan0 294#040B0002CF5A001D
(1734619082.875681) vcan0 039#000C
(1734619082.875689) vcan0 21E#03E83745220610
(1734619082.878326) vcan0 183#0000000C0000103C
(1734619082.878354) vcan0 143#6B6B00FF
(1734619082.878361) vcan0 095#800007F400000026
(1734619082.882126) vcan0 166#D0320036
(1734619082.882455) vcan0 158#0000000000000037
(1734619082.882463) vcan0 161#000005500108003A
(1734619082.884248) vcan0 191#010090A1410021
(1734619082.884343) vcan0 164#0000C01AA8000022
(1734619082.884350) vcan0 133#0000000089
(1734619082.884356) vcan0 136#000200000000000C
(1734619082.884363) vcan0 13A#000000000000000A
(1734619082.884369) vcan0 13F#0000000500000000
(1734619082.884375) vcan0 17C#0000000010000003
(1734619082.884380) vcan0 18E#00004D
(1734619082.884765) vcan0 244#0000000175
(1734619082.885706) vcan0 1CF#80050000002D
(1734619082.885721) vcan0 1DC#0200002A
(1734619082.885728) vcan0 183#0000000900001002
(1734619082.888477) vcan0 143#6B6B00C2
(1734619082.888568) vcan0 305#8026
(1734619082.888575) vcan0 095#800007F400000035
(1734619082.890678) vcan0 1A4#0000000800000001
(1734619082.890776) vcan0 1AA#7FFF000000006801
(1734619082.890783) vcan0 1B0#000F0000000148
(1734619082.890789) vcan0 1D0#000000000000000A
(1734619082.892084) vcan0 166#D0320009
(1734619082.893615) vcan0 158#000000000000000A
(1734619082.893715) vcan0 161#000005500108000D
(1734619082.893723) vcan0 191#010090A1410030
(1734619082.893730) vcan0 164#0000C01AA8000031
(1734619082.893737) vcan0 133#0000000098
(1734619082.893743) vcan0 136#000200000000001B
(1734619082.893749) vcan0 13A#0000000000000019
(1734619082.895298) vcan0 13F#000000050000001F
(1734619082.895398) vcan0 17C#0000000010000012
(1734619082.895405) vcan0 18E#00005C
(1734619082.895411) vcan0 309#00000000000000A2
(1734619082.896569) vcan0 039#001B
(1734619082.896668) vcan0 183#0000000600001014
(1734619082.896675) vcan0 143#6B6B00D1
(1734619082.897043) vcan0 244#0000000134
(1734619082.898794) vcan0 095#800007F400000008
(1734619082.901888) vcan0 166#D0320018
(1734619082.904853) vcan0 158#0000000000000019
(1734619082.904865) vcan0 161#000005500108001C
(1734619082.904873) vcan0 191#010090A1410003
(1734619082.904880) vcan0 133#00000000A7
(1734619082.904889) vcan0 136#000200000000002A
(1734619082.904895) vcan0 13A#0000000000000028
(1734619082.904902) vcan0 13F#000000050000002E
(1734619082.904918) vcan0 164#0000C01AA8000004
(1734619082.904926) vcan0 17C#0000000010000021
(1734619082.904933) vcan0 18E#00006B
(1734619082.904939) vcan0 1CF#80050000003C
(1734619082.904946) vcan0 1DC#02000039
(1734619082.907852) vcan0 183#0000000C0000102D
(1734619082.907878) vcan0 143#6B6B00E0
(1734619082.909040) vcan0 095#800007F400000017
(1734619082.909080) vcan0 1A4#0000000800000010
(1734619082.909541) vcan0 244#0000000108
(1734619082.910336) vcan0 1AA#7FFF000000006810
(1734619082.910454) vcan0 1B0#000F0000000157
(1734619082.910462) vcan0 039#002A
(1734619082.910469) vcan0 1D0#000000000000000A
(1734619082.911858) vcan0 166#D0320027
(1734619082.913369) vcan0 158#0000000000000028
(1734619082.913400) vcan0 161#000005500108002B
(1734619082.913407) vcan0 191#010090A1410012
(1734619082.913413) vcan0 133#00000000B6
(1734619082.913420) vcan0 136#0002000000000039
(1734619082.915165) vcan0 13A#0000000000000037
(1734619082.915623) vcan0 13F#000000050000003D
(1734619082.915636) vcan0 164#0000C01AA8000013
(1734619082.915642) vcan0 17C#0000000010000030
(1734619082.915648) vcan0 18E#00007A
(1734619082.915654) vcan0 294#040B0002CF5A002C
(1734619082.915661) vcan0 21E#03E8374522062F
(1734619082.916971) vcan0 183#0000001000001037
(1734619082.917087) vcan0 143#6B6B00FF
(1734619082.919469) vcan0 095#800007F400000026
(1734619082.921001) vcan0 166#D0320036
(1734619082.921411) vcan0 244#0000000137
(1734619082.923326) vcan0 158#0000000000000037
(1734619082.923428) vcan0 161#000005500108003A
(1734619082.923438) vcan0 191#010090A1410021
(1734619082.923445) vcan0 164#0000C01AA8000022
(1734619082.923451) vcan0 133#0000000089
(1734619082.923457) vcan0 136#000200000000000C
(1734619082.924797) vcan0 13A#000000000000000A
(1734619082.924900) vcan0 13F#0000000500000000
(1734619082.924907) vcan0 17C#0000000010000003
(1734619082.924914) vcan0 18E#00004D
(1734619082.924923) vcan0 1CF#80050000000F
(1734619082.924930) vcan0 039#0039
(1734619082.924937) vcan0 1DC#0200000C
(1734619082.926383) vcan0 183#0000000C0000100F
(1734619082.926486) vcan0 143#6B6B00C2
(1734619082.929837) vcan0 095#800007F400000035
(1734619082.929941) vcan0 1A4#000000080000002F
(1734619082.929949) vcan0 1AA#7FFF00000000682F
(1734619082.929956) vcan0 1B0#000F0000000166
(1734619082.929963) vcan0 1D0#000000000000000A
(1734619082.931942) vcan0 166#D0320009
(1734619082.934002) vcan0 244#0000000170
(1734619082.933949) vcan0 158#000000000000000A
(1734619082.934063) vcan0 161#000005500108000D
(1734619082.934070) vcan0 191#010090A1410030
(1734619082.934080) vcan0 133#0000000098
(1734619082.934087) vcan0 136#000200000000001B
(1734619082.934094) vcan0 13A#0000000000000019
(1734619082.934102) vcan0 13F#000000050000001F
(1734619082.934109) vcan0 164#0000C01AA8000031
(1734619082.937960) vcan0 17C#0000000010000012
(1734619082.938078) vcan0 18E#00005C
(1734619082.938086) vcan0 183#0000001000001019
(1734619082.938092) vcan0 143#6B6B00D1
(1734619082.938098) vcan0 039#000C
(1734619082.939629) vcan0 095#800007F400000008
(1734619082.941203) vcan0 166#D0320018
(1734619082.943271) vcan0 158#0000000000000019
(1734619082.943304) vcan0 161#000005500108001C
(1734619082.943311) vcan0 191#010090A1410003
(1734619082.943318) vcan0 164#0000C01AA8000004
(1734619082.943327) vcan0 133#00000000A7
(1734619082.944721) vcan0 136#000200000000002A
(1734619082.945109) vcan0 13A#0000000000000028
(1734619082.945117) vcan0 13F#000000050000002E
(1734619082.945123) vcan0 17C#0000000010000021
(1734619082.945131) vcan0 18E#00006B
(1734619082.945138) vcan0 1CF#80050000001E
(1734619082.945144) vcan0 1DC#0200001B
(1734619082.945437) vcan0 244#0000000111
(1734619082.947655) vcan0 183#0000000C0000102D
(1734619082.947770) vcan0 143#6B6B00E0
(1734619082.947777) vcan0 333#0000000000002D
(1734619082.949474) vcan0 095#800007F400000017
(1734619082.949500) vcan0 1A4#000000080000003E
(1734619082.949507) vcan0 1AA#7FFF00000000673F
(1734619082.951361) vcan0 1B0#000F0000000175
(1734619082.951475) vcan0 1D0#000000000000000A
(1734619082.951483) vcan0 166#D0320027
(1734619082.953337) vcan0 158#0000000000000028
(1734619082.953445) vcan0 161#000005500108002B
(1734619082.953453) vcan0 191#010090A1410012
(1734619082.953460) vcan0 133#00000000B6
(1734619082.953469) vcan0 136#0002000000000039
(1734619082.955241) vcan0 13A#0000000000000037
(1734619082.955343) vcan0 13F#000000050000003D
(1734619082.955360) vcan0 164#0000C01AA8000013
(1734619082.955368) vcan0 17C#0000000010000030
(1734619082.955374) vcan0 18E#00007A
(1734619082.955382) vcan0 294#040B0002CF5A003B
(1734619082.955390) vcan0 21E#03E8374522063E
(1734619082.956484) vcan0 244#0000000100
(1734619082.956770) vcan0 183#000000090000103F
(1734619082.956803) vcan0 143#6B6B00FF
(1734619082.958795) vcan0 039#001B
(1734619082.958948) vcan0 095#800007F400000026
(1734619082.961782) vcan0 166#D0320036
(1734619082.963760) vcan0 158#0000000000000037
(1734619082.963785) vcan0 161#000005500108003A
(1734619082.963791) vcan0 191#010090A1410021
(1734619082.963797) vcan0 164#0000C01AA8000022
(1734619082.963803) vcan0 133#0000000089
(1734619082.963811) vcan0 136#000200000000000C
(1734619082.963817) vcan0 13A#000000000000000A
(1734619082.965312) vcan0 13F#0000000500000000
(1734619082.965330) vcan0 17C#0000000010000003
(1734619082.965336) vcan0 18E#00004D
(1734619082.965342) vcan0 1CF#80050000002D
(1734619082.965348) vcan0 1DC#0200002A
(1734619082.965355) vcan0 320#000021
(1734619082.965361) vcan0 324#7465000000000E29
(1734619082.966877) vcan0 183#0000000E0000100D
(1734619082.966992) vcan0 37C#FD00FD00097F0029
(1734619082.967000) vcan0 40C#014A484D46413325
(1734619082.967006) vcan0 454#23EF27
(1734619082.967013) vcan0 143#6B6B00C2
(1734619082.968460) vcan0 095#800007F400000035
(1734619082.968510) vcan0 244#0000000123
(1734619082.969985) vcan0 1A4#0000000800000001
(1734619082.970093) vcan0 1AA#7FFF000000006801
(1734619082.970102) vcan0 1B0#000F0000000148
(1734619082.970108) vcan0 1D0#000000000000000A
(1734619082.971494) vcan0 166#D0320009
(1734619082.973376) vcan0 158#000000000000000A
(1734619082.973493) vcan0 161#000005500108000D
(1734619082.973501) vcan0 191#010090A1410030
(1734619082.973508) vcan0 133#0000000098
(1734619082.973515) vcan0 136#000200000000001B
(1734619082.973521) vcan0 13A#0000000000000019
(1734619082.977965) vcan0 13F#000000050000001F
(1734619082.979280) vcan0 164#0000C01AA8000031
(1734619082.979289) vcan0 17C#0000000010000012
(1734619082.979296) vcan0 18E#00005C
(1734619082.979303) vcan0 183#0000000A00001010
(1734619082.979310) vcan0 143#6B6B00D1
(1734619082.979316) vcan0 095#800007F400000008
(1734619082.979324) vcan0 039#002A
(1734619082.980502) vcan0 244#0000000123
(1734619082.981038) vcan0 166#D0320018
(1734619082.982524) vcan0 158#0000000000000019
(1734619082.982625) vcan0 161#000005500108001C
(1734619082.984358) vcan0 191#010090A1410003
(1734619082.984456) vcan0 164#0000C01AA8000004
(1734619082.984464) vcan0 133#00000000A7
(1734619082.984472) vcan0 136#000200000000002A
(1734619082.984479) vcan0 13A#0000000000000028
(1734619082.984486) vcan0 13F#000000050000002E
(1734619082.984493) vcan0 17C#0000000010000021
(1734619082.984499) vcan0 18E#00006B
(1734619082.984506) vcan0 1CF#80050000003C
(1734619082.985981) vcan0 1DC#02000039
(1734619082.986084) vcan0 183#0000000700001022
(1734619082.987736) vcan0 143#6B6B00E0
(1734619082.989334) vcan0 095#800007F400000017
(1734619082.989436) vcan0 1A4#0000000800000010
(1734619082.989444) vcan0 1AA#7FFF000000006810
(1734619082.991642) vcan0 1B0#000F0000000157
(1734619082.991754) vcan0 1D0#000000000000000A
(1734619082.991763) vcan0 166#D0320027
(1734619082.991769) vcan0 039#0039
(1734619082.991800) vcan0 244#00000001D7
(1734619082.993101) vcan0 158#0000000000000028
(1734619082.993205) vcan0 161#000005500108002B
(1734619082.993213) vcan0 191#010090A1410012
(1734619082.993220) vcan0 305#8035
(1734619082.993227) vcan0 164#0000C01AA8000013
(1734619082.993233) vcan0 133#00000000B6
(1734619082.994661) vcan0 136#0002000000000039
(1734619082.994690) vcan0 13A#0000000000000037
(1734619082.994697) vcan0 13F#000000050000003D
(1734619082.994758) vcan0 17C#0000000010000030
(1734619082.994767) vcan0 18E#00007A
(1734619082.994776) vcan0 294#040B0002CF5A000E
(1734619082.996795) vcan0 21E#03E83745220601
(1734619082.996821) vcan0 309#00000000000000B1
(1734619082.996827) vcan0 428#01040000521C3E
(1734619082.996833) vcan0 405#0000040000000038
(1734619082.996839) vcan0 183#0000000D0000103B
(1734619082.996845) vcan0 143#6B6B00FF
(1734619082.998731) vcan0 095#800007F400000026
(1734619083.002823) vcan0 166#D0320036
(1734619083.002853) vcan0 158#0000000000000037
(1734619083.002860) vcan0 161#000005500108003A
(1734619083.002866) vcan0 191#010090A1410021
(1734619083.003915) vcan0 244#000000015B
(1734619083.004534) vcan0 164#0000C01AA8000022
(1734619083.004650) vcan0 133#0000000089
(1734619083.004657) vcan0 136#000200000000000C
(1734619083.004663) vcan0 13A#000000000000000A
(1734619083.004669) vcan0 13F#0000000500000000
(1734619083.004675) vcan0 17C#0000000010000003
(1734619083.004681) vcan0 18E#00004D
(1734619083.004687) vcan0 1CF#80050000000F
(1734619083.004696) vcan0 1DC#0200000C
(1734619083.006234) vcan0 183#0000000900001002
(1734619083.006261) vcan0 039#000C
(1734619083.009724) vcan0 143#6B6B00C2
(1734619083.011562) vcan0 095#800007F400000035
(1734619083.011577) vcan0 1A4#000000080000002F
(1734619083.011585) vcan0 1AA#7FFF00000000682F
(1734619083.011591) vcan0 1B0#000F0000000166
(1734619083.011596) vcan0 1D0#000000000000000A
(1734619083.011603) vcan0 166#D0320009
(1734619083.013086) vcan0 158#000000000000000A
(1734619083.013972) vcan0 161#000005500108000D
(1734619083.013982) vcan0 191#010090A1410030
(1734619083.013990) vcan0 18E#00005C
(1734619083.014003) vcan0 133#0000000098
(1734619083.014011) vcan0 136#000200000000001B
(1734619083.014019) vcan0 13A#0000000000000019
(1734619083.014025) vcan0 13F#000000050000001F
(1734619083.014033) vcan0 164#0000C01AA8000031
(1734619083.021776) vcan0 17C#0000000010000012
(1734619083.021886) vcan0 244#0000000168
(1734619083.022306) vcan0 183#0000000E0000101C
(1734619083.022319) vcan0 143#6B6B00D1
(1734619083.022327) vcan0 095#800007F400000008
(1734619083.022334) vcan0 039#001B
(1734619083.022340) vcan0 166#D0320018
(1734619083.022346) vcan0 158#0000000000000019
(1734619083.022781) vcan0 188#00000000
(1734619083.023852) vcan0 161#000005500108001C
(1734619083.024024) vcan0 191#010090A1410003
(1734619083.024034) vcan0 164#0000C01AA8000004
(1734619083.024040) vcan0 133#00000000A7
(1734619083.024046) vcan0 136#000200000000002A
(1734619083.024053) vcan0 13A#0000000000000028
(1734619083.024060) vcan0 13F#000000050000002E
(1734619083.025410) vcan0 17C#0000000010000021
(1734619083.025517) vcan0 18E#00006B
(1734619083.025525) vcan0 1CF#80050000001E
(1734619083.025531) vcan0 1DC#0200001B
(1734619083.025538) vcan0 183#0000000A0000102F
(1734619083.026943) vcan0 143#6B6B00E0
(1734619083.028619) vcan0 095#800007F400000017
(1734619083.030975) vcan0 1A4#000000080000003E
(1734619083.031017) vcan0 1AA#7FFF00000000673F
(1734619083.031028) vcan0 1B0#000F0000000175
(1734619083.031039) vcan0 1D0#000000000000000A
(1734619083.031052) vcan0 166#D0320027
(1734619083.033732) vcan0 158#0000000000000028
(1734619083.033843) vcan0 161#000005500108002B
(1734619083.033852) vcan0 191#010090A1410012
(1734619083.033859) vcan0 164#0000C01AA8000013
(1734619083.033865) vcan0 133#00000000B6
(1734619083.033871) vcan0 136#0002000000000039
(1734619083.033877) vcan0 13A#0000000000000037
(1734619083.034653) vcan0 244#00000001D5
(1734619083.035420) vcan0 13F#000000050000003D
(1734619083.035534) vcan0 17C#0000000010000030
(1734619083.035543) vcan0 18E#00007A
(1734619083.035550) vcan0 294#040B0002CF5A001D
(1734619083.035557) vcan0 21E#03E83745220610
(1734619083.035564) vcan0 039#002A
(1734619083.037544) vcan0 183#0000000F00001039
(1734619083.037572) vcan0 143#6B6B00FF
(1734619083.039558) vcan0 095#800007F400000026
(1734619083.041968) vcan0 166#D0320036
(1734619083.043540) vcan0 158#0000000000000037
(1734619083.043753) vcan0 161#000005500108003A
(1734619083.043761) vcan0 191#010090A1410021
(1734619083.043768) vcan0 164#0000C01AA8000022
(1734619083.043775) vcan0 133#0000000089
(1734619083.043781) vcan0 136#000200000000000C
(1734619083.043788) vcan0 13A#000000000000000A
(1734619083.045389) vcan0 13F#0000000500000000
(1734619083.045495) vcan0 17C#0000000010000003
(1734619083.045503) vcan0 18E#00004D
(1734619083.045509) vcan0 1CF#80050000002D
(1734619083.045515) vcan0 1DC#0200002A
(1734619083.045521) vcan0 183#0000001300001007
(1734619083.047817) vcan0 143#6B6B00C2
(1734619083.048466) vcan0 244#00000001CC
(1734619083.048336) vcan0 333#0000000000003C
(1734619083.049842) vcan0 095#800007F400000035
(1734619083.049939) vcan0 1A4#0000000800000001
(1734619083.049947) vcan0 1AA#7FFF000000006801
(1734619083.049953) vcan0 1B0#000F0000000148
(1734619083.049959) vcan0 1D0#000000000000000A
(1734619083.051662) vcan0 166#D0320009
(1734619083.054387) vcan0 158#000000000000000A
(1734619083.054491) vcan0 161#000005500108000D
(1734619083.054498) vcan0 191#010090A1410030
(1734619083.054504) vcan0 133#0000000098
(1734619083.054512) vcan0 136#000200000000001B
(1734619083.054526) vcan0 13A#0000000000000019
(1734619083.054533) vcan0 13F#000000050000001F
(1734619083.054539) vcan0 039#0039
(1734619083.054545) vcan0 164#0000C01AA8000031
(1734619083.054551) vcan0 17C#0000000010000012
(1734619083.054558) vcan0 18E#00005C
(1734619083.055976) vcan0 183#0000000E0000101C
(1734619083.057548) vcan0 143#6B6B00D1
(1734619083.060851) vcan0 244#00000001A7
(1734619083.062205) vcan0 095#800007F400000008
(1734619083.062223) vcan0 166#D0320018
(1734619083.062229) vcan0 158#0000000000000019
(1734619083.063883) vcan0 161#000005500108001C
(1734619083.063989) vcan0 191#010090A1410003
(1734619083.063996) vcan0 164#0000C01AA8000004
(1734619083.064002) vcan0 133#00000000A7
(1734619083.064008) vcan0 136#000200000000002A
(1734619083.064014) vcan0 13A#0000000000000028
(1734619083.064021) vcan0 13F#000000050000002E
(1734619083.066225) vcan0 17C#0000000010000021
(1734619083.066255) vcan0 18E#00006B
(1734619083.066263) vcan0 1CF#80050000003C
(1734619083.066269) vcan0 1DC#02000039
(1734619083.066275) vcan0 320#000030
(1734619083.066281) vcan0 324#7465000000000E38
(1734619083.066287) vcan0 37C#FD00FD00097F0038
(1734619083.066295) vcan0 183#0000000A0000102F
(1734619083.067676) vcan0 143#6B6B00E0
(1734619083.069695) vcan0 095#800007F400000017
(1734619083.070041) vcan0 1A4#0000000800000010
(1734619083.070051) vcan0 1AA#7FFF000000006810
(1734619083.070057) vcan0 1B0#000F0000000157
(1734619083.070066) vcan0 1D0#000000000000000A
(1734619083.071355) vcan0 244#0000000178
(1734619083.071491) vcan0 166#D0320027
(1734619083.073459) vcan0 158#0000000000000028
(1734619083.073570) vcan0 161#000005500108002B
(1734619083.073580) vcan0 039#000C
(1734619083.073587) vcan0 191#010090A1410012
(1734619083.073594) vcan0 133#00000000B6
(1734619083.073602) vcan0 136#0002000000000039
(1734619083.073609) vcan0 13A#0000000000000037
(1734619083.075775) vcan0 13F#000000050000003D
(1734619083.075925) vcan0 164#0000C01AA8000013
(1734619083.075936) vcan0 17C#0000000010000030
(1734619083.075944) vcan0 18E#00007A
(1734619083.075954) vcan0 294#040B0002CF5A002C
(1734619083.075962) vcan0 21E#03E8374522062F
(1734619083.075973) vcan0 183#0000000700001031
(1734619083.078002) vcan0 143#6B6B00FF
(1734619083.080865) vcan0 095#800007F400000026
(1734619083.080971) vcan0 166#D0320036
(1734619083.082790) vcan0 158#0000000000000037
(1734619083.082957) vcan0 161#000005500108003A
(1734619083.082965) vcan0 191#010090A1410021
(1734619083.082973) vcan0 164#0000C01AA8000022
(1734619083.083107) vcan0 244#000000017C
(1734619083.085292) vcan0 133#0000000089
(1734619083.085401) vcan0 136#000200000000000C
(1734619083.085409) vcan0 13A#000000000000000A
(1734619083.085415) vcan0 13F#0000000500000000
(1734619083.085422) vcan0 17C#0000000010000003
(1734619083.085434) vcan0 18E#00004D
(1734619083.085440) vcan0 1CF#80050000000F
(1734619083.085446) vcan0 1DC#0200000C
(1734619083.085452) vcan0 183#0000000500001006
(1734619083.087050) vcan0 143#6B6B00C2
(1734619083.089380) vcan0 095#800007F400000035
(1734619083.089483) vcan0 039#001B
(1734619083.089490) vcan0 1A4#000000080000002F
(1734619083.089496) vcan0 1AA#7FFF000000006720
(1734619083.089502) vcan0 1B0#000F0000000166
(1734619083.091379) vcan0 1D0#000000000000000A
(1734619083.091501) vcan0 166#D0320009
(1734619083.092845) vcan0 158#000000000000000A
(1734619083.094046) vcan0 161#000005500108000D
(1734619083.094056) vcan0 191#010090A1410030
(1734619083.094065) vcan0 164#0000C01AA9000030
(1734619083.094072) vcan0 133#0000000098
(1734619083.094079) vcan0 136#000200000000001B
(1734619083.094087) vcan0 13A#0000000000000019
(1734619083.094093) vcan0 13F#000000050000001F
(1734619083.094883) vcan0 244#00000001F3
(1734619083.095832) vcan0 17C#0000000010000012
(1734619083.095857) vcan0 18E#00005C
(1734619083.095864) vcan0 309#0000000000000084
(1734619083.095870) vcan0 305#8008
(1734619083.097525) vcan0 183#0000000B0000101F
(1734619083.097640) vcan0 143#6B6B00D1
(1734619083.099141) vcan0 095#800007F400000008
(1734619083.101122) vcan0 166#D0320018
(1734619083.102960) vcan0 158#0000000000000019
(1734619083.103148) vcan0 161#000005500108001C
(1734619083.103529) vcan0 191#010090A1410003
(1734619083.103630) vcan0 133#00000000A7
(1734619083.103638) vcan0 136#000200000000002A
(1734619083.103645) vcan0 13A#0000000000000028
(1734619083.103651) vcan0 039#002A
(1734619083.104962) vcan0 13F#000000050000002E
(1734619083.105147) vcan0 164#0000C01AA8000004
(1734619083.105156) vcan0 17C#0000000010000021
(1734619083.105167) vcan0 18E#00006B
(1734619083.105174) vcan0 1CF#80050000001E
(1734619083.105185) vcan0 1DC#0200001B
(1734619083.105667) vcan0 244#00000001D2
(1734619083.106507) vcan0 183#0000000800001021
(1734619083.106608) vcan0 143#6B6B00E0
(1734619083.108574) vcan0 095#800007F400000017
(1734619083.110492) vcan0 1A4#000000080000003E
(1734619083.110508) vcan0 1AA#7FFF00000000673F
(1734619083.110515) vcan0 1B0#000F0000000175
(1734619083.110522) vcan0 1D0#000000000000000A
(1734619083.112052) vcan0 166#D0320027
(1734619083.114555) vcan0 158#0000000000000028
(1734619083.114565) vcan0 161#000005500108002B
(1734619083.114572) vcan0 191#010090A1410012
(1734619083.114578) vcan0 133#00000000B6
(1734619083.114585) vcan0 136#0002000000000039
(1734619083.114590) vcan0 13A#0000000000000037
(1734619083.114597) vcan0 13F#000000050000003D
(1734619083.114603) vcan0 164#0000C01AA8000013
(1734619083.114609) vcan0 17C#0000000010000030
(1734619083.114615) vcan0 18E#00007A
(1734619083.114621) vcan0 294#040B0002CF5A003B
(1734619083.116100) vcan0 21E#03E8374522063E
(1734619083.116637) vcan0 183#0000000D0000103B
(1734619083.116650) vcan0 143#6B6B00FF
(1734619083.116795) vcan0 244#0000000136
(1734619083.120128) vcan0 095#800007F400000026
(1734619083.122587) vcan0 166#D0320036
(1734619083.122694) vcan0 158#0000000000000037
(1734619083.122701) vcan0 161#000005500108003A
(1734619083.122708) vcan0 191#010090A1410021
(1734619083.124776) vcan0 164#0000C01AA8000022
(1734619083.124887) vcan0 133#0000000089
(1734619083.124894) vcan0 136#000200000000000C
(1734619083.124901) vcan0 13A#000000000000000A
(1734619083.124907) vcan0 13F#0000000500000000
(1734619083.124915) vcan0 17C#0000000010000003
(1734619083.124921) vcan0 18E#00004D
(1734619083.124927) vcan0 1CF#80050000002D
(1734619083.124933) vcan0 039#0039
(1734619083.124939) vcan0 1DC#0200002A
(1734619083.126472) vcan0 183#0000000900001002
(1734619083.126493) vcan0 143#6B6B00C2
(1734619083.128780) vcan0 244#0000000138
(1734619083.129528) vcan0 095#800007F400000035
(1734619083.129640) vcan0 1A4#0000000800000001
(1734619083.129648) vcan0 1AA#7FFF000000006801
(1734619083.129654) vcan0 1B0#000F0000000148
(1734619083.131334) vcan0 1D0#000000000000000A
(1734619083.131625) vcan0 166#D0320009
(1734619083.135525) vcan0 158#000000000000000A
(1734619083.135640) vcan0 161#000005500108000D
(1734619083.135648) vcan0 191#010090A1410030
(1734619083.135654) vcan0 164#0000C01AA8000031
(1734619083.135661) vcan0 133#0000000098
(1734619083.135668) vcan0 136#000200000000001B
(1734619083.135675) vcan0 13A#0000000000000019
(1734619083.135681) vcan0 13F#000000050000001F
(1734619083.135687) vcan0 17C#0000000010000012
(1734619083.135692) vcan0 18E#00005C
(1734619083.137436) vcan0 183#0000000600001014
(1734619083.137462) vcan0 143#6B6B00D1
(1734619083.137468) vcan0 039#000C
(1734619083.139647) vcan0 095#800007F400000008
(1734619083.141661) vcan0 166#D0320018
(1734619083.142136) vcan0 244#00000001BE
(1734619083.142837) vcan0 158#0000000000000019
(1734619083.142953) vcan0 161#000005500108001C
(1734619083.142962) vcan0 191#010090A1410003
(1734619083.144602) vcan0 164#0000C01AA8000004
(1734619083.144717) vcan0 133#00000000A7
(1734619083.144725) vcan0 136#000200000000002A
(1734619083.144731) vcan0 13A#0000000000000028
(1734619083.144737) vcan0 13F#000000050000002E
(1734619083.144743) vcan0 17C#0000000010000021
(1734619083.144749) vcan0 18E#00006B
(1734619083.144755) vcan0 1CF#80050000003C
(1734619083.144762) vcan0 1DC#02000039
(1734619083.146022) vcan0 183#0000000C0000102D
(1734619083.147854) vcan0 143#6B6B00E0
(1734619083.148034) vcan0 333#0000000000000F
(1734619083.150380) vcan0 095#800007F400000017
(1734619083.150558) vcan0 1A4#0000000800000010
(1734619083.150567) vcan0 1AA#7FFF000000006810
(1734619083.150573) vcan0 1B0#000F0000000157
(1734619083.150579) vcan0 1D0#000000000000000A
(1734619083.150585) vcan0 039#001B
(1734619083.152036) vcan0 166#D0320027
(1734619083.152970) vcan0 158#0000000000000028
(1734619083.152980) vcan0 161#000005500108002B
(1734619083.152986) vcan0 191#010090A1410012
(1734619083.152992) vcan0 133#00000000B6
(1734619083.153936) vcan0 244#00000001BE
(1734619083.154386) vcan0 136#0002000000000039
(1734619083.154522) vcan0 13A#0000000000000037
(1734619083.154529) vcan0 13F#000000050000003D
(1734619083.154544) vcan0 164#0000C01AA8000013
(1734619083.154550) vcan0 17C#0000000010000030
(1734619083.154556) vcan0 18E#00007A
(1734619083.156277) vcan0 294#040B0002CF5A000E
(1734619083.156377) vcan0 21E#03E83745220601
(1734619083.156385) vcan0 183#000000090000103F
(1734619083.157733) vcan0 143#6B6B00FF
(1734619083.159526) vcan0 095#800007F400000026
(1734619083.161710) vcan0 166#D0320036
(1734619083.163548) vcan0 158#0000000000000037
(1734619083.163730) vcan0 161#000005500108003A
(1734619083.163739) vcan0 191#010010A1410029
(1734619083.163746) vcan0 164#0000C01AA8000022
(1734619083.163753) vcan0 133#0000000089
(1734619083.163760) vcan0 136#000200000000000C
(1734619083.163767) vcan0 13A#000000000000000A
(1734619083.165334) vcan0 13F#0000000500000000
(1734619083.165515) vcan0 17C#0000000010000003
(1734619083.165526) vcan0 18E#00004D
(1734619083.165533) vcan0 1CF#80050000000F
(1734619083.165540) vcan0 1DC#0200000C
(1734619083.165547) vcan0 320#000003
(1734619083.165480) vcan0 244#000000018C
(1734619083.165555) vcan0 324#7465000000000E0B
(1734619083.165562) vcan0 183#0000000600001005
(1734619083.165569) vcan0 37C#FD00FD00097F000B
(1734619083.167056) vcan0 039#002A
(1734619083.167477) vcan0 143#6B6B00C2
(1734619083.169439) vcan0 095#800007F400000035
(1734619083.169460) vcan0 1A4#000000080000002F
(1734619083.169467) vcan0 1AA#7FFF000000006720
(1734619083.169473) vcan0 1B0#000F0000000166
(1734619083.171598) vcan0 1D0#000000000000000A
(1734619083.172973) vcan0 166#D0320009
(1734619083.173157) vcan0 158#000000000000000A
(1734619083.173166) vcan0 161#000005500108000D
(1734619083.173173) vcan0 191#010010A1410038
(1734619083.173181) vcan0 133#0000000098
(1734619083.174522) vcan0 136#000200000000001B
(1734619083.174707) vcan0 13A#0000000000000019
(1734619083.174716) vcan0 13F#000000050000001F
(1734619083.174724) vcan0 164#0000C01AA8000031
(1734619083.174731) vcan0 17C#0000000010000012
(1734619083.174737) vcan0 18E#00005C
(1734619083.176519) vcan0 183#0000000C0000101E
(1734619083.176703) vcan0 143#6B6B00D1
(1734619083.176675) vcan0 244#000000019C
(1734619083.179295) vcan0 095#800007F400000008
(1734619083.179410) vcan0 039#0039
(1734619083.181581) vcan0 166#D0320018
(1734619083.184824) vcan0 158#0000000000000019
(1734619083.184928) vcan0 161#000005500108001C
(1734619083.184935) vcan0 191#010010A141000B
(1734619083.184941) vcan0 164#0000C01AA8000004
(1734619083.184948) vcan0 133#00000000A7
(1734619083.184954) vcan0 136#000200000000002A
(1734619083.184959) vcan0 13A#0000000000000028
(1734619083.184967) vcan0 13F#000000050000002E
(1734619083.184974) vcan0 17C#0000000010000021
(1734619083.184980) vcan0 18E#00006B
(1734619083.184986) vcan0 1CF#80050000001E
(1734619083.184991) vcan0 1DC#0200001B
(1734619083.186980) vcan0 183#0000000900001020
(1734619083.187154) vcan0 143#6B6B00E0
(1734619083.188612) vcan0 095#800007F400000017
(1734619083.189420) vcan0 244#000000010E
(1734619083.190644) vcan0 1A4#000000080000003E
(1734619083.190820) vcan0 1AA#7FFF00000000673F
(1734619083.190833) vcan0 1B0#000F0000000175
(1734619083.190844) vcan0 1D0#000000000000000A
(1734619083.192284) vcan0 166#D0320027
(1734619083.192387) vcan0 039#000C
(1734619083.192394) vcan0 158#0000000000000028
(1734619083.194186) vcan0 161#000005500108002B
(1734619083.194722) vcan0 191#010010A141001A
(1734619083.194733) vcan0 133#00000000B6
(1734619083.194740) vcan0 136#0002000000000039
(1734619083.194747) vcan0 13A#0000000000000037
(1734619083.194753) vcan0 13F#000000050000003D
(1734619083.194759) vcan0 164#0000C01AA8000013
(1734619083.194765) vcan0 17C#0000000010000030
(1734619083.194772) vcan0 18E#00007A
(1734619083.194779) vcan0 294#040B0002CF5A001D
(1734619083.197329) vcan0 21E#03E83745220610
(1734619083.197371) vcan0 309#0000000000000093
(1734619083.197379) vcan0 183#0000000E0000103A
(1734619083.197386) vcan0 143#6B6B00FF
(1734619083.201076) vcan0 095#800007F400000026
(1734619083.201101) vcan0 305#8017
(1734619083.201108) vcan0 166#D0320036
(1734619083.203330) vcan0 158#0000000000000037
(1734619083.204280) vcan0 244#00000001F3
(1734619083.204864) vcan0 161#000005500108003A
(1734619083.204873) vcan0 191#010010A1410029
(1734619083.204881) vcan0 164#0000C01AA8000022
(1734619083.204888) vcan0 133#0000000089
(1734619083.204894) vcan0 136#000200000000000C
(1734619083.204903) vcan0 13A#000000000000000A
(1734619083.204909) vcan0 13F#0000000500000000
(1734619083.204926) vcan0 17C#0000000010000003
(1734619083.204932) vcan0 18E#00004D
(1734619083.204940) vcan0 1CF#80050000002D
(1734619083.204946) vcan0 1DC#0200002A
(1734619083.208225) vcan0 183#0000000A00001001
(1734619083.208347) vcan0 143#6B6B00C2
(1734619083.208354) vcan0 039#001B
(1734619083.209691) vcan0 095#800007F400000035
(1734619083.209796) vcan0 1A4#0000000800000001
(1734619083.209804) vcan0 1AA#7FFF000000006801
(1734619083.209811) vcan0 1B0#000F0000000148
(1734619083.209818) vcan0 1D0#000000000000000A
(1734619083.211359) vcan0 166#D0320009
(1734619083.212782) vcan0 158#000000000000000A
(1734619083.212965) vcan0 161#000005500108000D
(1734619083.212973) vcan0 191#010010A1410038
(1734619083.212981) vcan0 133#0000000098
(1734619083.215103) vcan0 136#000200000000001B
(1734619083.215493) vcan0 13A#0000000000000019
(1734619083.215504) vcan0 13F#000000050000001F
(1734619083.215510) vcan0 164#0000C01AA8000031
(1734619083.215517) vcan0 17C#0000000010000012
(1734619083.215524) vcan0 18E#00005C
(1734619083.215920) vcan0 244#00000001B0
(1734619083.217040) vcan0 183#0000000700001013
(1734619083.217143) vcan0 143#6B6B00D1
(1734619083.219555) vcan0 095#800007F400000008
(1734619083.221845) vcan0 039#002A
(1734619083.221963) vcan0 166#D0320018
(1734619083.223821) vcan0 158#0000000000000019
(1734619083.223969) vcan0 161#000005500108001C
(1734619083.223978) vcan0 191#010010A141000B
(1734619083.223985) vcan0 133#00000000A7
(1734619083.223991) vcan0 136#000200000000002A
(1734619083.224000) vcan0 13A#0000000000000028
(1734619083.224006) vcan0 13F#000000050000002E
(1734619083.224013) vcan0 164#0000C01AA8000004
(1734619083.225565) vcan0 17C#0000000010000021
(1734619083.225597) vcan0 18E#00006B
(1734619083.225607) vcan0 1CF#80050000003C
(1734619083.225614) vcan0 1DC#02000039
(1734619083.225622) vcan0 183#0000000500001024
(1734619083.227610) vcan0 143#6B6B00E0
(1734619083.228406) vcan0 244#00000001E6
(1734619083.229233) vcan0 095#800007F400000017
(1734619083.229331) vcan0 1A4#0000000800000010
(1734619083.229339) vcan0 1AA#7FFF000000006810
(1734619083.230894) vcan0 1B0#000F0000000157
(1734619083.230920) vcan0 1D0#000000000000000A
(1734619083.233027) vcan0 166#D0320027
(1734619083.233142) vcan0 158#0000000000000028
(1734619083.233150) vcan0 161#000005500108002B
(1734619083.233157) vcan0 191#010010A141001A
(1734619083.233163) vcan0 133#00000000B6
(1734619083.234794) vcan0 136#0002000000000039
(1734619083.234978) vcan0 13A#0000000000000037
(1734619083.234987) vcan0 13F#000000050000003D
(1734619083.234994) vcan0 164#0000C01AA8000013
(1734619083.235000) vcan0 17C#0000000010000030
(1734619083.235008) vcan0 039#0039
(1734619083.235015) vcan0 18E#00007A
(1734619083.235022) vcan0 294#040B0002CF5A002C
(1734619083.235029) vcan0 21E#03E8374522062F
(1734619083.236632) vcan0 183#0000000300001035
(1734619083.236821) vcan0 143#6B6B00FF
(1734619083.238593) vcan0 095#800007F400000026
(1734619083.239603) vcan0 244#00000001E2
(1734619083.241393) vcan0 166#D0320036
(1734619083.242575) vcan0 158#0000000000000037
(1734619083.242693) vcan0 161#000005500108003A
(1734619083.242700) vcan0 191#010010A1410029
(1734619083.244413) vcan0 133#0000000089
(1734619083.244509) vcan0 136#000200000000000C
(1734619083.244518) vcan0 13A#000000000000000A
(1734619083.244525) vcan0 13F#0000000500000000
(1734619083.244532) vcan0 164#0000C01AA8000022
(1734619083.244538) vcan0 17C#0000000010000003
(1734619083.244545) vcan0 18E#00004D
(1734619083.244552) vcan0 1CF#80050000000F
(1734619083.246864) vcan0 1DC#0200000C
(1734619083.246973) vcan0 183#0000000A00001001
(1734619083.246981) vcan0 143#6B6B00C2
(1734619083.246987) vcan0 039#000C
(1734619083.251022) vcan0 333#0000000000001E
(1734619083.251682) vcan0 095#800007F400000035
(1734619083.251691) vcan0 1A4#000000080000002F
(1734619083.251698) vcan0 1AA#7FFF000000006720
(1734619083.251704) vcan0 1B0#000F0000000166
(1734619083.251710) vcan0 1D0#000000000000000A
(1734619083.251716) vcan0 166#D0320009
(1734619083.252640) vcan0 244#0000000148
(1734619083.256868) vcan0 158#000000000000000A
(1734619083.256979) vcan0 161#000005500108000D
(1734619083.256986) vcan0 191#010010A1410038
(1734619083.256992) vcan0 133#0000000098
(1734619083.256998) vcan0 136#000200000000001B
(1734619083.257004) vcan0 13A#0000000000000019
(1734619083.257010) vcan0 13F#000000050000001F
(1734619083.257017) vcan0 164#0000C01AA8000031
(1734619083.257032) vcan0 17C#0000000010000012
(1734619083.257040) vcan0 18E#00005C
(1734619083.257048) vcan0 183#0000000700001013
(1734619083.257054) vcan0 143#6B6B00D1
(1734619083.259720) vcan0 095#800007F400000008
(1734619083.261586) vcan0 166#D0320018
(1734619083.263303) vcan0 158#0000000000000019
(1734619083.263347) vcan0 161#000005500108001C
(1734619083.263359) vcan0 191#010010A141000B
(1734619083.263369) vcan0 133#00000000A7
(1734619083.263380) vcan0 136#000200000000002A
(1734619083.265284) vcan0 13A#0000000000000028
(1734619083.267661) vcan0 13F#000000050000002E
(1734619083.267672) vcan0 164#0000C01AA8000004
(1734619083.267679) vcan0 17C#0000000010000021
(1734619083.267685) vcan0 18E#00006B
(1734619083.267692) vcan0 1CF#80050000001E
(1734619083.267700) vcan0 1DC#0200001B
(1734619083.267707) vcan0 320#000012
(1734619083.267715) vcan0 324#7465000000000E1A
(1734619083.267722) vcan0 37C#FD00FD00097F001A
(1734619083.267729) vcan0 183#0000000500001024
(1734619083.267735) vcan0 40C#0236323239533039
(1734619083.267741) vcan0 454#23EF36
(1734619083.267750) vcan0 143#6B6B00E0
(1734619083.268644) vcan0 244#00000001F7
(1734619083.269403) vcan0 095#800007F400000017
(1734619083.269427) vcan0 039#001B
(1734619083.269434) vcan0 1A4#000000080000003E
(1734619083.269441) vcan0 1AA#7FFF00000000673F
(1734619083.270797) vcan0 1B0#000F0000000175
(1734619083.270909) vcan0 1D0#000000000000000A
(1734619083.272318) vcan0 166#D0320027
(1734619083.272675) vcan0 158#0000000000000028
(1734619083.272685) vcan0 161#000005500108002B
(1734619083.272691) vcan0 191#010010A141001A
(1734619083.276032) vcan0 133#00000000B6
(1734619083.276152) vcan0 136#0002000000000039
(1734619083.276160) vcan0 13A#0000000000000037
(1734619083.276166) vcan0 13F#000000050000003D
(1734619083.276174) vcan0 164#0000C01AA8000013
(1734619083.276181) vcan0 17C#0000000010000030
(1734619083.276188) vcan0 18E#00007A
(1734619083.276195) vcan0 294#040B0002CF5A003B
(1734619083.276203) vcan0 21E#03E8374522063E
(1734619083.276210) vcan0 183#0000000B0000103D
(1734619083.278238) vcan0 143#6B6B00FF
(1734619083.278426) vcan0 095#800007F400000026
(1734619083.281672) vcan0 244#00000001B3
(1734619083.282174) vcan0 166#D0320036
(1734619083.283754) vcan0 158#0000000000000037
(1734619083.283858) vcan0 161#000005500108003A
(1734619083.283865) vcan0 191#010010A1410029
(1734619083.283872) vcan0 164#0000C01AA8000022
(1734619083.283879) vcan0 133#0000000089
(1734619083.283887) vcan0 136#000200000000000C
(1734619083.283894) vcan0 13A#000000000000000A
(1734619083.283901) vcan0 13F#0000000500000000
(1734619083.285487) vcan0 17C#0000000010000003
(1734619083.285531) vcan0 18E#00004D
(1734619083.285544) vcan0 1CF#80050000002D
(1734619083.285555) vcan0 1DC#0200002A
(1734619083.285566) vcan0 183#0000000800001003
(1734619083.287563) vcan0 143#6B6B00C2
(1734619083.289487) vcan0 095#800007F400000035
(1734619083.289590) vcan0 039#002A
(1734619083.289598) vcan0 1A4#0000000800000001
(1734619083.289606) vcan0 1AA#7FFF000000006801
(1734619083.289617) vcan0 1B0#000F0000000148
(1734619083.291850) vcan0 1D0#000000000000000A
(1734619083.291955) vcan0 166#D0320009
(1734619083.293745) vcan0 158#000000000000000A
(1734619083.293876) vcan0 161#000005500108000D
(1734619083.293884) vcan0 191#010010A1410038
(1734619083.293893) vcan0 133#0000000098
(1734619083.293899) vcan0 136#000200000000001B
(1734619083.293905) vcan0 13A#0000000000000019
(1734619083.293914) vcan0 13F#000000050000001F
(1734619083.293996) vcan0 244#000000016E
(1734619083.296703) vcan0 164#0000C01AA9000030
(1734619083.296824) vcan0 17C#0000000010000012
(1734619083.296832) vcan0 18E#00005C
(1734619083.296838) vcan0 309#00000000000000A2
(1734619083.296844) vcan0 428#01040000521C01
(1734619083.296850) vcan0 405#000004000000000B
(1734619083.296856) vcan0 183#0000000600001014
(1734619083.296863) vcan0 143#6B6B00D1
(1734619083.299173) vcan0 095#800007F400000008
(1734619083.301365) vcan0 166#D0320018
(1734619083.303318) vcan0 305#8026
(1734619083.303497) vcan0 158#0000000000000019
(1734619083.303506) vcan0 161#000005500108001C
(1734619083.303512) vcan0 191#010010A141000B
(1734619083.303518) vcan0 164#0000C01AA8000004
(1734619083.303524) vcan0 133#00000000A7
(1734619083.303530) vcan0 136#000200000000002A
(1734619083.305851) vcan0 13A#0000000000000028
(1734619083.306911) vcan0 244#000000014B
(1734619083.306976) vcan0 13F#000000050000002E
(1734619083.306990) vcan0 17C#0000000010000021
(1734619083.307000) vcan0 18E#00006B
(1734619083.307023) vcan0 1CF#80050000003C
(1734619083.307034) vcan0 1DC#02000039
(1734619083.307045) vcan0 183#0000000C0000102D
(1734619083.307057) vcan0 143#6B6B00E0
(1734619083.308516) vcan0 095#800007F400000017
(1734619083.310483) vcan0 1A4#0000000800000010
(1734619083.310656) vcan0 1AA#7FFF000000006810
(1734619083.310664) vcan0 1B0#000F0000000157
(1734619083.310670) vcan0 039#0039
(1734619083.310677) vcan0 1D0#000000000000000A
(1734619083.312428) vcan0 166#D0320027
(1734619083.312616) vcan0 158#0000000000000028
(1734619083.312625) vcan0 161#000005500108002B
(1734619083.314487) vcan0 191#010010A141001A
(1734619083.314666) vcan0 133#00000000B6
(1734619083.314675) vcan0 136#0002000000000039
(1734619083.314681) vcan0 13A#0000000000000037
(1734619083.314688) vcan0 13F#000000050000003D
(1734619083.314695) vcan0 164#0000C01AA8000013
(1734619083.314701) vcan0 17C#0000000010000030
(1734619083.314708) vcan0 18E#00007A
(1734619083.314714) vcan0 294#040B0002CF5A000E
(1734619083.316574) vcan0 21E#03E83745220601
(1734619083.316756) vcan0 183#000000090000103F
(1734619083.316765) vcan0 143#6B6B00FF
(1734619083.318677) vcan0 244#000000013F
(1734619083.320482) vcan0 095#800007F400000026
(1734619083.322519) vcan0 166#D0320036
(1734619083.322624) vcan0 158#0000000000000037
(1734619083.322686) vcan0 161#000005500108003A
(1734619083.322693) vcan0 191#010010A1410029
(1734619083.324419) vcan0 164#0000C01AA8000022
(1734619083.324543) vcan0 133#0000000089
(1734619083.324551) vcan0 136#000200000000000C
(1734619083.324557) vcan0 13A#000000000000000A
(1734619083.324563) vcan0 039#000C
(1734619083.324571) vcan0 13F#0000000500000000
(1734619083.324577) vcan0 17C#0000000010000003
(1734619083.324584) vcan0 18E#00004D
(1734619083.324592) vcan0 1CF#80050000000F
(1734619083.326568) vcan0 1DC#0200000C
(1734619083.326606) vcan0 183#0000000E0000100D
(1734619083.326612) vcan0 143#6B6B00C2
(1734619083.329857) vcan0 095#800007F400000035
(1734619083.330052) vcan0 1A4#000000080000002F
(1734619083.330062) vcan0 1AA#7FFF000000006720
(1734619083.330069) vcan0 1B0#000F0000000166
(1734619083.330079) vcan0 1D0#000000000000000A
(1734619083.330427) vcan0 0CE#0FFCE8E8756EDAB5
(1734619083.331554) vcan0 166#D0320009
(1734619083.331749) vcan0 244#000000011B
(1734619083.333569) vcan0 158#000000000000000A
(1734619083.333606) vcan0 161#000005500108000D
(1734619083.333613) vcan0 191#010010A1410038
(1734619083.333620) vcan0 133#0000000098
(1734619083.333626) vcan0 136#000200000000001B
(1734619083.333632) vcan0 13A#0000000000000019
(1734619083.336094) vcan0 13F#000000050000001F
(1734619083.336124) vcan0 164#0000C01AA8000031
(1734619083.336131) vcan0 17C#0000000010000012
(1734619083.336137) vcan0 18E#00005C
(1734619083.336143) vcan0 183#0000000A00001010
(1734619083.340822) vcan0 143#6B6B00D1
(1734619083.340931) vcan0 039#001B
(1734619083.340941) vcan0 095#800007F400000008
(1734619083.342771) vcan0 166#D0320018
(1734619083.342955) vcan0 158#0000000000000019
(1734619083.342964) vcan0 161#000005500108001C
(1734619083.342970) vcan0 191#010010A141000B
(1734619083.344092) vcan0 244#00000001E8
(1734619083.345012) vcan0 164#0000C01AA8000004
(1734619083.345195) vcan0 133#00000000A7
(1734619083.345207) vcan0 136#000200000000002A
(1734619083.345218) vcan0 13A#0000000000000028
(1734619083.345228) vcan0 13F#000000050000002E
(1734619083.345238) vcan0 17C#0000000010000021
(1734619083.345248) vcan0 18E#00006B
(1734619083.345259) vcan0 1CF#80050000001E
(1734619083.345271) vcan0 1DC#0200001B
(1734619083.347444) vcan0 183#0000000700001022
(1734619083.347544) vcan0 143#6B6B00E0
(1734619083.347551) vcan0 333#0000000000002D
(1734619083.349505) vcan0 095#800007F400000017
(1734619083.349642) vcan0 1A4#000000080000003E
(1734619083.349649) vcan0 1AA#7FFF00000000673F
(1734619083.349655) vcan0 1B0#000F0000000175
(1734619083.350979) vcan0 1D0#000000000000000A
(1734619083.351086) vcan0 039#002A
(1734619083.351096) vcan0 166#D0320027
(1734619083.353046) vcan0 158#0000000000000028
(1734619083.353364) vcan0 161#000005500108002B
(1734619083.353374) vcan0 191#010010A141001A
(1734619083.353380) vcan0 133#00000000B6
(1734619083.353386) vcan0 136#0002000000000039
(1734619083.355584) vcan0 13A#0000000000000037
(1734619083.355688) vcan0 13F#000000050000003D
(1734619083.355711) vcan0 164#0000C01AA8000013
(1734619083.355717) vcan0 17C#0000000010000030
(1734619083.355726) vcan0 18E#00007A
(1734619083.355733) vcan0 294#040B0002CF5A001D
(1734619083.355740) vcan0 21E#03E83745220610
(1734619083.356725) vcan0 244#00000001FF
(1734619083.357737) vcan0 183#0000000500001033
(1734619083.357850) vcan0 143#6B6B00FF
(1734619083.359741) vcan0 095#800007F400000026
(1734619083.361220) vcan0 166#D0320036
(1734619083.362533) vcan0 158#0000000000000037
(1734619083.362647) vcan0 161#000005500108003A
(1734619083.364769) vcan0 191#010010A1410029
(1734619083.364947) vcan0 164#0000C01AA8000022
(1734619083.364957) vcan0 133#0000000089
(1734619083.364963) vcan0 136#000200000000000C
(1734619083.364969) vcan0 13A#000000000000000A
(1734619083.364976) vcan0 13F#0000000500000000
(1734619083.364984) vcan0 17C#0000000010000003
(1734619083.364990) vcan0 18E#00004D
(1734619083.364997) vcan0 1CF#80050000002D
(1734619083.365297) vcan0 1DC#0200002A
(1734619083.365399) vcan0 320#000021
(1734619083.365530) vcan0 324#7465000000000E29
(1734619083.365543) vcan0 37C#FD00FD00097F0029
(1734619083.367694) vcan0 183#0000000300001008
(1734619083.367871) vcan0 143#6B6B00C2
(1734619083.368361) vcan0 244#00000001DC
(1734619083.369848) vcan0 095#800007F400000035
(1734619083.371059) vcan0 1A4#0000000800000001
(1734619083.371067) vcan0 1AA#7FFF000000006801
(1734619083.371073) vcan0 1B0#000F0000000148
(1734619083.371081) vcan0 1D0#000000000000000A
(1734619083.371088) vcan0 039#0039
(1734619083.371095) vcan0 166#D0320009
(1734619083.374484) vcan0 158#000000000000000A
(1734619083.374513) vcan0 161#000005500108000D
(1734619083.374519) vcan0 191#010010A1410038
(1734619083.374525) vcan0 133#0000000098
(1734619083.374532) vcan0 136#000200000000001B
(1734619083.374539) vcan0 13A#0000000000000019
(1734619083.374545) vcan0 13F#000000050000001F
(1734619083.374553) vcan0 164#0000C01AA8000031
(1734619083.374560) vcan0 17C#0000000010000012
(1734619083.374566) vcan0 18E#00005C
(1734619083.377458) vcan0 183#0000000A00001010
(1734619083.377644) vcan0 143#6B6B00D1
(1734619083.379066) vcan0 095#800007F400000008
(1734619083.379728) vcan0 244#00000001DB
(1734619083.381984) vcan0 166#D0320018
(1734619083.382087) vcan0 039#000C
(1734619083.383626) vcan0 158#0000000000000019
(1734619083.383647) vcan0 161#000005500108001C
(1734619083.383655) vcan0 191#010010A141000B
(1734619083.383662) vcan0 164#0000C01AA8000004
(1734619083.383669) vcan0 133#00000000A7
(1734619083.383676) vcan0 136#000200000000002A
(1734619083.383687) vcan0 13A#0000000000000028
(1734619083.385103) vcan0 13F#000000050000002E
(1734619083.385118) vcan0 17C#0000000010000021
(1734619083.385125) vcan0 18E#00006B
(1734619083.385131) vcan0 1CF#80050000003C
(1734619083.385136) vcan0 1DC#02000039
(1734619083.386508) vcan0 183#0000000700001022
(1734619083.386611) vcan0 143#6B6B00E0
(1734619083.388455) vcan0 095#800007F400000017
(1734619083.390660) vcan0 1A4#0000000800000010
(1734619083.390758) vcan0 1AA#7FFF000000006810
(1734619083.390765) vcan0 1B0#000F0000000157
(1734619083.390774) vcan0 1D0#000000000000000A
(1734619083.391791) vcan0 244#00000001F7
(1734619083.392042) vcan0 166#D0320027
(1734619083.393340) vcan0 158#0000000000000028
(1734619083.393441) vcan0 161#000005500108002B
(1734619083.393449) vcan0 191#010010A141001A
(1734619083.393456) vcan0 133#00000000B6
(1734619083.393463) vcan0 136#0002000000000039
(1734619083.393469) vcan0 13A#0000000000000037
(1734619083.395840) vcan0 13F#000000050000003D
(1734619083.395938) vcan0 164#0000C01AA8000013
(1734619083.395945) vcan0 17C#0000000010000030
(1734619083.395951) vcan0 18E#00007A
(1734619083.395957) vcan0 294#040B0002CF5A002C
(1734619083.395963) vcan0 21E#03E8374522062F
(1734619083.395970) vcan0 309#00000000000000B1
(1734619083.395976) vcan0 039#001B
(1734619083.395984) vcan0 183#0000000500001033
(1734619083.397974) vcan0 143#6B6B00FF
(1734619083.399260) vcan0 095#800007F400000026
(1734619083.402937) vcan0 166#D0320036
(1734619083.406519) vcan0 158#0000000000000037
(1734619083.407680) vcan0 161#000005500108003A
(1734619083.407690) vcan0 191#010010A1410029
(1734619083.407697) vcan0 164#0000C01AA9000021
(1734619083.407703) vcan0 133#0000000089
(1734619083.407582) vcan0 244#000000015F
(1734619083.407709) vcan0 136#000200000000000C
(1734619083.407720) vcan0 13A#000000000000000A
(1734619083.407726) vcan0 13F#0000000500000000
(1734619083.407732) vcan0 17C#0000000010000003
(1734619083.407748) vcan0 18E#00004D
(1734619083.407755) vcan0 1CF#80050000000F
(1734619083.407762) vcan0 1DC#0200000C
(1734619083.407770) vcan0 183#0000000B00001000
(1734619083.407782) vcan0 143#6B6B00C2
(1734619083.409083) vcan0 095#800007F400000035
(1734619083.409491) vcan0 305#8035
(1734619083.409502) vcan0 1A4#000000080000002F
(1734619083.409509) vcan0 1AA#7FFF000000006720
(1734619083.409515) vcan0 1B0#000F0000000166
(1734619083.411198) vcan0 1D0#000000000000000A
(1734619083.411234) vcan0 166#D0320009
(1734619083.413080) vcan0 158#000000000000000A
(1734619083.413491) vcan0 161#000005500108000D
(1734619083.413499) vcan0 191#010010A1410038
(1734619083.413505) vcan0 133#0000000098
(1734619083.413511) vcan0 136#000200000000001B
(1734619083.413519) vcan0 13A#0000000000000019
(1734619083.415258) vcan0 13F#000000050000001F
(1734619083.415351) vcan0 164#0000C01AA8000031
(1734619083.415359) vcan0 17C#0000000010000012
(1734619083.415366) vcan0 18E#00005C
(1734619083.416837) vcan0 039#002A
(1734619083.416939) vcan0 183#0000000800001012
(1734619083.416947) vcan0 143#6B6B00D1
(1734619083.418569) vcan0 095#800007F400000008
(1734619083.419607) vcan0 244#000000014C
(1734619083.421482) vcan0 166#D0320018
(1734619083.423405) vcan0 158#0000000000000019
(1734619083.423504) vcan0 161#000005500108001C
(1734619083.423512) vcan0 191#010010A141000B
(1734619083.423519) vcan0 164#0000C01AA8000004
(1734619083.423525) vcan0 133#00000000A7
(1734619083.423530) vcan0 136#000200000000002A
(1734619083.424803) vcan0 13A#0000000000000028
(1734619083.424901) vcan0 13F#000000050000002E
(1734619083.424909) vcan0 17C#0000000010000021
(1734619083.424916) vcan0 18E#00006B
(1734619083.424922) vcan0 1CF#80050000001E
(1734619083.424930) vcan0 1DC#0200001B
(1734619083.426938) vcan0 183#0000000600001023
(1734619083.427033) vcan0 143#6B6B00E0
(1734619083.428966) vcan0 095#800007F400000017
(1734619083.429061) vcan0 1A4#000000080000003E
(1734619083.430800) vcan0 1AA#7FFF00000000673F
(1734619083.430919) vcan0 1B0#000F0000000175
(1734619083.430926) vcan0 1D0#000000000000000A
(1734619083.430932) vcan0 039#0039
(1734619083.431647) vcan0 244#0000000160
(1734619083.433540) vcan0 166#D0320027
(1734619083.433569) vcan0 158#0000000000000028
(1734619083.433576) vcan0 161#000005500108002B
(1734619083.433582) vcan0 191#010010A141001A
(1734619083.433589) vcan0 133#00000000B6
(1734619083.433597) vcan0 136#0002000000000039
(1734619083.433604) vcan0 13A#0000000000000037
(1734619083.435011) vcan0 13F#000000050000003D
(1734619083.435446) vcan0 164#0000C01AA8000013
(1734619083.435455) vcan0 17C#0000000010000030
(1734619083.435461) vcan0 18E#00007A
(1734619083.435467) vcan0 294#040B0002CF5A003B
(1734619083.435473) vcan0 21E#03E8374522063E
(1734619083.437325) vcan0 183#0000000C0000103C
(1734619083.437348) vcan0 143#6B6B00FF
(1734619083.438872) vcan0 095#800007F800000022
(1734619083.441916) vcan0 166#D0320036
(1734619083.443034) vcan0 244#00000001A3
(1734619083.443603) vcan0 158#0000000000000037
(1734619083.443730) vcan0 161#000005500108003A
(1734619083.443738) vcan0 191#010010A1410029
(1734619083.443745) vcan0 164#0000C01AA8000022
(1734619083.443752) vcan0 133#0000000089
(1734619083.443758) vcan0 039#000C
(1734619083.443765) vcan0 136#000200000000000C
(1734619083.443777) vcan0 13A#000000000000000A
(1734619083.445852) vcan0 13F#0000000500000000
(1734619083.445966) vcan0 17C#0000000010000003
(1734619083.445975) vcan0 18E#00004D
(1734619083.445983) vcan0 1CF#80050000002D
(1734619083.445990) vcan0 1DC#0200002A
(1734619083.445996) vcan0 183#0000000900001002
(1734619083.448314) vcan0 143#6B6B00C2
(1734619083.448340) vcan0 333#0000000000003C
(1734619083.448347) vcan0 095#800007F800000031
(1734619083.451498) vcan0 1A4#0000000800000001
(1734619083.451616) vcan0 1AA#7FFF000000006801
(1734619083.451624) vcan0 1B0#000F0000000148
(1734619083.451630) vcan0 1D0#000000000000000A
(1734619083.451636) vcan0 166#D0320009
(1734619083.453489) vcan0 158#000000000000000A
(1734619083.453590) vcan0 161#000005500108000D
(1734619083.453599) vcan0 191#010010A1410038
(1734619083.453605) vcan0 133#0000000098
(1734619083.453613) vcan0 136#000200000000001B
(1734619083.453619) vcan0 13A#0000000000000019
(1734619083.455067) vcan0 13F#000000050000001F
(1734619083.455516) vcan0 164#0000C01AA8000031
(1734619083.455531) vcan0 17C#0000000010000012
(1734619083.455541) vcan0 18E#00005C
(1734619083.456330) vcan0 244#00000001E1
(1734619083.456893) vcan0 183#0000000E0000101C
(1734619083.456995) vcan0 143#6B6B00D1
(1734619083.457003) vcan0 039#001B
(1734619083.458890) vcan0 095#800007F800000004
(1734619083.462411) vcan0 166#D0320018
(1734619083.462538) vcan0 158#0000000000000019
(1734619083.462545) vcan0 161#000005500108001C
(1734619083.464574) vcan0 191#010090A1410003
(1734619083.464689) vcan0 133#00000000A7
(1734619083.464696) vcan0 136#000200000000002A
(1734619083.464702) vcan0 13A#0000000000000028
(1734619083.464710) vcan0 13F#000000050000002E
(1734619083.464716) vcan0 164#0000C01AA8000004
(1734619083.464722) vcan0 17C#0000000010000021
(1734619083.464731) vcan0 18E#00006B
(1734619083.464737) vcan0 1CF#80050000003C
(1734619083.464743) vcan0 1DC#02000039
(1734619083.466354) vcan0 320#000030
(1734619083.466815) vcan0 324#7465000000000E38
(1734619083.466830) vcan0 37C#FD00FD00097F0038
(1734619083.466837) vcan0 183#0000000A0000102F
(1734619083.466844) vcan0 143#6B6B00E0
(1734619083.467562) vcan0 244#00000001F8
(1734619083.468616) vcan0 095#800007F800000013
(1734619083.470446) vcan0 1A4#0000000800000010
(1734619083.470471) vcan0 1AA#7FFF000000006810
(1734619083.470479) vcan0 1B0#000F0000000157
(1734619083.470486) vcan0 1D0#000000000000000A
(1734619083.472484) vcan0 039#002A
(1734619083.472870) vcan0 166#D0320027
(1734619083.472879) vcan0 158#0000000000000028
(1734619083.472887) vcan0 161#000005500108002B
(1734619083.472895) vcan0 191#010090A1410012
(1734619083.474682) vcan0 133#00000000B6
(1734619083.474795) vcan0 136#0002000000000039
(1734619083.474805) vcan0 13A#0000000000000037
(1734619083.474812) vcan0 13F#000000050000003D
(1734619083.474819) vcan0 164#0000C01AA9000012
(1734619083.474827) vcan0 17C#0000000010000030
(1734619083.474834) vcan0 18E#00007A
(1734619083.474841) vcan0 294#040B0002CF5A000E
(1734619083.477219) vcan0 21E#03E83745220601
(1734619083.477242) vcan0 183#0000000F00001039
(1734619083.477249) vcan0 143#6B6B00FF
(1734619083.478519) vcan0 095#800007F800000022
(1734619083.478999) vcan0 244#00000001B3
(1734619083.481539) vcan0 166#D0320036
(1734619083.483486) vcan0 158#0000000000000037
(1734619083.483587) vcan0 161#000005500108003A
(1734619083.483594) vcan0 191#010090A1410021
(1734619083.483600) vcan0 164#0000C01AA8000022
(1734619083.483606) vcan0 133#0000000089
(1734619083.483612) vcan0 136#000200000000000C
(1734619083.483618) vcan0 13A#000000000000000A
(1734619083.485582) vcan0 13F#0000000500000000
(1734619083.485685) vcan0 17C#0000000010000003
(1734619083.485692) vcan0 18E#00004D
(1734619083.485698) vcan0 1CF#80050000000F
(1734619083.485705) vcan0 1DC#0200000C
(1734619083.485712) vcan0 183#0000001300001007
(1734619083.485719) vcan0 039#0039
(1734619083.487484) vcan0 143#6B6B00C2
(1734619083.489346) vcan0 095#800007F400000035
(1734619083.489469) vcan0 1A4#000000080000002F
(1734619083.489477) vcan0 1AA#7FFF000000006720
(1734619083.489484) vcan0 1B0#000F0000000166
(1734619083.490898) vcan0 1D0#000000000000000A
(1734619083.491228) vcan0 244#00000001CF
(1734619083.494190) vcan0 166#D0320009
(1734619083.494649) vcan0 158#000000000000000A
(1734619083.494658) vcan0 161#000005500108000D
(1734619083.494665) vcan0 191#010090A1410030
(1734619083.494672) vcan0 133#0000000098
(1734619083.494682) vcan0 136#000200000000001B
(1734619083.494689) vcan0 13A#0000000000000019
(1734619083.494695) vcan0 13F#000000050000001F
(1734619083.494709) vcan0 164#0000C01AA8000031
(1734619083.494715) vcan0 17C#0000000010000012
(1734619083.494722) vcan0 18E#00005C
(1734619083.494729) vcan0 309#0000000000000084
(1734619083.496783) vcan0 183#0000000E0000101C
(1734619083.496896) vcan0 143#6B6B00D1
(1734619083.498527) vcan0 095#800007F400000008
(1734619083.499898) vcan0 039#000C
(1734619083.501739) vcan0 166#D0320018
(1734619083.502386) vcan0 244#00000001CB
(1734619083.503462) vcan0 158#0000000000000019
(1734619083.503485) vcan0 161#000005500108001C
(1734619083.503492) vcan0 191#010090A1410003
(1734619083.503500) vcan0 164#0000C01AA8000004
(1734619083.503507) vcan0 133#00000000A7
(1734619083.503513) vcan0 136#000200000000002A
(1734619083.504901) vcan0 13A#0000000000000028
(1734619083.505020) vcan0 13F#000000050000002E
(1734619083.505028) vcan0 17C#0000000010000021
(1734619083.505034) vcan0 18E#00006B
(1734619083.505041) vcan0 1CF#80050000001E
(1734619083.505047) vcan0 1DC#0200001B
(1734619083.506706) vcan0 183#0000000A0000102F
(1734619083.506892) vcan0 143#6B6B00E0
(1734619083.508871) vcan0 095#800007F400000017
(1734619083.509058) vcan0 1A4#000000080000003E
(1734619083.511428) vcan0 1AA#7FFF00000000673F
(1734619083.511609) vcan0 1B0#000F0000000175
(1734619083.511618) vcan0 1D0#000000000000000A
(1734619083.511624) vcan0 166#D0320027
(1734619083.513723) vcan0 158#0000000000000028
(1734619083.513892) vcan0 161#000005500108002B
(1734619083.513900) vcan0 191#010090A1410012
(1734619083.513909) vcan0 133#00000000B6
(1734619083.513916) vcan0 136#0002000000000039
(1734619083.513922) vcan0 039#001B
(1734619083.513928) vcan0 13A#0000000000000037
(1734619083.513934) vcan0 13F#000000050000003D
(1734619083.514903) vcan0 244#0000000107
(1734619083.516218) vcan0 164#0000C01AA8000013
(1734619083.516232) vcan0 17C#0000000010000030
(1734619083.516238) vcan0 18E#00007A
(1734619083.516245) vcan0 294#040B0002CF5A001D
(1734619083.516251) vcan0 305#8008
(1734619083.516258) vcan0 21E#03E83745220610
(1734619083.516264) vcan0 183#0000000700001031
(1734619083.517541) vcan0 143#6B6B00FF
(1734619083.518820) vcan0 095#800007F400000026
(1734619083.518932) vcan0 5A1#960000000000622F
(1734619083.520997) vcan0 166#D0320036
(1734619083.522035) vcan0 188#00000000
(1734619083.522623) vcan0 158#0000000000000037
(1734619083.522726) vcan0 161#000005500108003A
(1734619083.522734) vcan0 191#010090A1410021
(1734619083.523968) vcan0 133#0000000089
(1734619083.524068) vcan0 136#000200000000000C
(1734619083.524075) vcan0 13A#000000000000000A
(1734619083.524081) vcan0 13F#0000000500000000
(1734619083.524087) vcan0 164#0000C01AA8000022
(1734619083.526108) vcan0 17C#0000000010000003
(1734619083.526873) vcan0 18E#00004D
(1734619083.526989) vcan0 1CF#80050000002D
(1734619083.526998) vcan0 1DC#0200002A
(1734619083.527006) vcan0 183#0000000500001006
(1734619083.527013) vcan0 143#6B6B00C2
(1734619083.527020) vcan0 039#002A
(1734619083.528573) vcan0 244#0000000129
(1734619083.529005) vcan0 095#800007F400000035
(1734619083.529114) vcan0 1A4#0000000800000001
(1734619083.530629) vcan0 1AA#7FFF000000006801
(1734619083.530656) vcan0 1B0#000F0000000148
(1734619083.530663) vcan0 1D0#000000000000000A
(1734619083.532828) vcan0 166#D0320009
(1734619083.532949) vcan0 158#000000000000000A
(1734619083.532958) vcan0 161#000005500108000D
(1734619083.532965) vcan0 191#010090A1410030
(1734619083.532973) vcan0 133#0000000098
(1734619083.534353) vcan0 136#000200000000001B
(1734619083.534462) vcan0 13A#0000000000000019
(1734619083.534470) vcan0 13F#000000050000001F
(1734619083.534477) vcan0 164#0000C01AA8000031
(1734619083.534485) vcan0 17C#0000000010000012
(1734619083.534492) vcan0 18E#00005C
(1734619083.536119) vcan0 183#0000000B0000101F
(1734619083.538975) vcan0 143#6B6B00D1
(1734619083.539010) vcan0 095#800007F400000008
(1734619083.539618) vcan0 244#0000000125
(1734619083.540629) vcan0 039#0039
(1734619083.542510) vcan0 166#D0320018
