(1735040535.020802) vcan0 166#D0320036
(1735040535.020887) vcan0 039#000C
(1735040535.025285) vcan0 244#00000001A6
(1735040535.025254) vcan0 158#0000000000000037
(1735040535.027016) vcan0 161#000005500108003A
(1735040535.027022) vcan0 164#0000C01AA8000022
(1735040535.027026) vcan0 191#010090A1410021
(1735040535.027030) vcan0 133#0000000089
(1735040535.027035) vcan0 136#000200000000000C
(1735040535.027041) vcan0 13A#000000000000000A
(1735040535.027048) vcan0 13F#0000000500000000
(1735040535.027052) vcan0 17C#0000000010000003
(1735040535.027056) vcan0 18E#00004D
(1735040535.027060) vcan0 1CF#80050000002D
(1735040535.027064) vcan0 1DC#0200002A
(1735040535.027069) vcan0 183#0000000A00001001
(1735040535.027072) vcan0 143#6B6B00C2
(1735040535.027077) vcan0 095#800007F400000035
(1735040535.027081) vcan0 1A4#0000000800000001
(1735040535.027085) vcan0 1AA#7FFF000000006702
(1735040535.027089) vcan0 1B0#000F0000000148
(1735040535.027094) vcan0 1D0#000000000000000A
(1735040535.027098) vcan0 166#D0320009
(1735040535.027102) vcan0 158#000000000000000A
(1735040535.027106) vcan0 161#000005500108000D
(1735040535.027110) vcan0 191#010090A1410030
(1735040535.027114) vcan0 164#0000C01AA8000031
(1735040535.027117) vcan0 133#0000000098
(1735040535.027121) vcan0 136#000200000000001B
(1735040535.027125) vcan0 13A#0000000000000019
(1735040535.027129) vcan0 13F#000000050000001F
(1735040535.027133) vcan0 17C#0000000010000012
(1735040535.027137) vcan0 18E#00005C
(1735040535.027141) vcan0 039#001B
(1735040535.034337) vcan0 244#0000000106
(1735040535.036971) vcan0 183#0000000700001013
(1735040535.036990) vcan0 143#6B6B00D1
(1735040535.036994) vcan0 095#800007F400000008
(1735040535.036998) vcan0 166#D0320018
(1735040535.037002) vcan0 158#0000000000000019
(1735040535.037006) vcan0 161#000005500108001C
(1735040535.037010) vcan0 191#010090A1410003
(1735040535.037014) vcan0 164#0000C01AA8000004
(1735040535.037018) vcan0 133#00000000A7
(1735040535.037022) vcan0 136#000200000000002A
(1735040535.037025) vcan0 13A#0000000000000028
(1735040535.037029) vcan0 13F#000000050000002E
(1735040535.037033) vcan0 17C#0000000010000021
(1735040535.037037) vcan0 18E#00006B
(1735040535.037040) vcan0 1CF#80050000003C
(1735040535.037044) vcan0 1DC#02000039
(1735040535.037049) vcan0 183#0000000500001024
(1735040535.043218) vcan0 143#6B6B00E0
(1735040535.043261) vcan0 333#0000000000000F
(1735040535.043265) vcan0 095#800007F400000017
(1735040535.043270) vcan0 039#002A
(1735040535.043274) vcan0 1A4#0000000800000010
(1735040535.043278) vcan0 305#8017
(1735040535.043282) vcan0 1AA#7FFF000000006810
(1735040535.043286) vcan0 1B0#000F0000000157
(1735040535.043291) vcan0 1D0#000000000000000A
(1735040535.043295) vcan0 166#D0320027
(1735040535.047294) vcan0 158#0000000000000028
(1735040535.050750) vcan0 161#000005500108002B
(1735040535.050936) vcan0 244#0000000165
(1735040535.051632) vcan0 191#010090A1410012
(1735040535.051640) vcan0 18E#00007A
(1735040535.051644) vcan0 133#00000000B6
(1735040535.051649) vcan0 136#0002000000000039
(1735040535.051654) vcan0 13A#0000000000000037
(1735040535.051658) vcan0 13F#000000050000003D
(1735040535.051662) vcan0 164#0000C01AA8000013
(1735040535.051666) vcan0 17C#0000000010000030
(1735040535.051670) vcan0 294#040B0002CF5A002C
(1735040535.051675) vcan0 21E#03E8374522062F
(1735040535.051679) vcan0 183#0000000B0000103D
(1735040535.051683) vcan0 143#6B6B00FF
(1735040535.051686) vcan0 095#800007F400000026
(1735040535.055805) vcan0 039#0039
(1735040535.059090) vcan0 166#D0320036
(1735040535.059100) vcan0 158#0000000000000037
(1735040535.059104) vcan0 161#000005500108003A
(1735040535.059108) vcan0 191#010010A1410029
(1735040535.059111) vcan0 164#0000C01AA8000022
(1735040535.059117) vcan0 133#0000000089
(1735040535.059121) vcan0 136#000200000000000C
(1735040535.059125) vcan0 13A#000000000000000A
(1735040535.059129) vcan0 13F#0000000500000000
(1735040535.059133) vcan0 17C#0000000010000003
(1735040535.059137) vcan0 18E#00004D
(1735040535.059141) vcan0 1CF#80050000000F
(1735040535.059144) vcan0 1DC#0200000C
(1735040535.059149) vcan0 320#000003
(1735040535.059153) vcan0 183#0000000800001003
(1735040535.059157) vcan0 324#7465000000000E0B
(1735040535.059162) vcan0 37C#FD00FD00097F000B
(1735040535.059166) vcan0 143#6B6B00C2
(1735040535.063328) vcan0 095#800007F400000035
(1735040535.065565) vcan0 1A4#000000080000002F
(1735040535.065573) vcan0 1AA#7FFF00000000682F
(1735040535.065577) vcan0 1B0#000F0000000166
(1735040535.065581) vcan0 1D0#000000000000000A
(1735040535.065585) vcan0 166#D0320009
(1735040535.065588) vcan0 158#000000000000000A
(1735040535.065592) vcan0 161#000005500108000D
(1735040535.065596) vcan0 191#010010A1410038
(1735040535.065601) vcan0 18E#00005C
(1735040535.065605) vcan0 133#0000000098
(1735040535.065609) vcan0 136#000200000000001B
(1735040535.069084) vcan0 244#000000014D
(1735040535.069147) vcan0 13A#0000000000000019
(1735040535.070028) vcan0 13F#000000050000001F
(1735040535.070034) vcan0 164#0000C01AA8000031
(1735040535.070038) vcan0 17C#0000000010000012
(1735040535.070045) vcan0 183#0000000600001014
(1735040535.070049) vcan0 039#000C
(1735040535.070053) vcan0 143#6B6B00D1
(1735040535.073255) vcan0 095#800007F400000008
(1735040535.076741) vcan0 166#D0320018
(1735040535.078671) vcan0 158#0000000000000019
(1735040535.078680) vcan0 161#000005500108001C
(1735040535.078684) vcan0 191#010010A141000B
(1735040535.078688) vcan0 164#0000C01AA8000004
(1735040535.078693) vcan0 133#00000000A7
(1735040535.078697) vcan0 136#000200000000002A
(1735040535.078702) vcan0 13A#0000000000000028
(1735040535.078707) vcan0 13F#000000050000002E
(1735040535.078711) vcan0 17C#0000000010000021
(1735040535.078715) vcan0 18E#00006B
(1735040535.078719) vcan0 1CF#80050000001E
(1735040535.078722) vcan0 1DC#0200001B
(1735040535.078726) vcan0 183#0000000400001025
(1735040535.078730) vcan0 143#6B6B00E0
(1735040535.081484) vcan0 244#00000001A8
(1735040535.082194) vcan0 095#800007F400000017
(1735040535.082215) vcan0 1A4#000000080000003E
(1735040535.082220) vcan0 039#001B
(1735040535.082224) vcan0 1AA#7FFF00000000673F
(1735040535.082227) vcan0 1B0#000F0000000175
(1735040535.082231) vcan0 1D0#000000000000000A
(1735040535.084834) vcan0 166#D0320027
(1735040535.087250) vcan0 158#0000000000000028
(1735040535.087257) vcan0 161#000005500108002B
(1735040535.087261) vcan0 191#010010A141001A
(1735040535.087265) vcan0 164#0000C01AA8000013
(1735040535.087269) vcan0 133#00000000B6
(1735040535.087273) vcan0 136#0002000000000039
(1735040535.087277) vcan0 13A#0000000000000037
(1735040535.087280) vcan0 13F#000000050000003D
(1735040535.087284) vcan0 17C#0000000010000030
(1735040535.087289) vcan0 18E#00007A
(1735040535.087293) vcan0 294#040B0002CF5A003B
(1735040535.087297) vcan0 21E#03E8374522063E
(1735040535.087302) vcan0 309#0000000000000093
(1735040535.090005) vcan0 183#0000000300001035
(1735040535.093306) vcan0 143#6B6B00FF
(1735040535.094602) vcan0 095#800007F400000026
(1735040535.094608) vcan0 166#D0320036
(1735040535.094612) vcan0 158#0000000000000037
(1735040535.094615) vcan0 161#000005500108003A
(1735040535.094619) vcan0 039#002A
(1735040535.096912) vcan0 191#010010A1410029
(1735040535.096925) vcan0 164#0000C01AA8000022
(1735040535.096929) vcan0 133#0000000089
(1735040535.096934) vcan0 136#000200000000000C
(1735040535.096937) vcan0 13A#000000000000000A
(1735040535.096941) vcan0 13F#0000000500000000
(1735040535.096946) vcan0 17C#0000000010000003
(1735040535.096950) vcan0 18E#00004D
(1735040535.096953) vcan0 1CF#80050000002D
(1735040535.096957) vcan0 1DC#0200002A
(1735040535.097367) vcan0 244#0000000183
(1735040535.105919) vcan0 183#0000000A00001001
(1735040535.105941) vcan0 143#6B6B00C2
(1735040535.105945) vcan0 095#800007F400000035
(1735040535.105949) vcan0 1A4#0000000800000001
(1735040535.105953) vcan0 1AA#7FFF000000006702
(1735040535.105957) vcan0 1B0#000F0000000148
(1735040535.105961) vcan0 1D0#000000000000000A
(1735040535.105966) vcan0 166#D0320009
(1735040535.105969) vcan0 158#000000000000000A
(1735040535.105973) vcan0 161#000005500108000D
(1735040535.105978) vcan0 191#010010A1410038
(1735040535.105981) vcan0 18E#00005C
(1735040535.105986) vcan0 133#0000000098
(1735040535.105989) vcan0 136#000200000000001B
(1735040535.105993) vcan0 13A#0000000000000019
(1735040535.105997) vcan0 13F#000000050000001F
(1735040535.110244) vcan0 164#0000C01AA8000031
(1735040535.110269) vcan0 17C#0000000010000012
(1735040535.110273) vcan0 183#0000000700001013
(1735040535.110278) vcan0 143#6B6B00D1
(1735040535.110282) vcan0 095#800007F400000008
(1735040535.113713) vcan0 244#000000016E
(1735040535.114655) vcan0 039#0039
(1735040535.114668) vcan0 166#D0320018
(1735040535.114672) vcan0 158#0000000000000019
(1735040535.114676) vcan0 161#000005500108001C
(1735040535.114682) vcan0 191#010010A141000B
(1735040535.117410) vcan0 164#0000C01AA8000004
(1735040535.121136) vcan0 133#00000000A7
(1735040535.121145) vcan0 136#000200000000002A
(1735040535.121150) vcan0 13A#0000000000000028
(1735040535.121156) vcan0 13F#000000050000002E
(1735040535.121160) vcan0 17C#0000000010000021
(1735040535.121164) vcan0 18E#00006B
(1735040535.121168) vcan0 1CF#80050000003C
(1735040535.121172) vcan0 1DC#02000039
(1735040535.121176) vcan0 183#0000000500001024
(1735040535.121180) vcan0 143#6B6B00E0
(1735040535.121183) vcan0 095#800007F400000017
(1735040535.121187) vcan0 1A4#0000000800000010
(1735040535.121191) vcan0 1AA#7FFF000000006810
(1735040535.130030) vcan0 244#00000001AD
(1735040535.135711) vcan0 1B0#000F0000000157
(1735040535.136564) vcan0 1D0#000000000000000A
(1735040535.136571) vcan0 166#D0320027
(1735040535.136576) vcan0 039#000C
(1735040535.136581) vcan0 158#0000000000000028
(1735040535.136585) vcan0 161#000005500108002B
(1735040535.136589) vcan0 191#010010A141001A
(1735040535.136593) vcan0 164#0000C01AA8000013
(1735040535.136596) vcan0 133#00000000B6
(1735040535.136601) vcan0 136#0002000000000039
(1735040535.136605) vcan0 13A#0000000000000037
(1735040535.136609) vcan0 13F#000000050000003D
(1735040535.136613) vcan0 17C#0000000010000030
(1735040535.136616) vcan0 18E#00007A
(1735040535.136620) vcan0 294#040B0002CF5A000E
(1735040535.136626) vcan0 21E#03E83745220601
(1735040535.136630) vcan0 183#0000000300001035
(1735040535.136634) vcan0 143#6B6B00FF
(1735040535.136638) vcan0 095#800007F400000026
(1735040535.136642) vcan0 166#D0320036
(1735040535.136646) vcan0 158#0000000000000037
(1735040535.136649) vcan0 161#000005500108003A
(1735040535.136653) vcan0 191#010010A1410029
(1735040535.136656) vcan0 18E#00004D
(1735040535.136661) vcan0 133#0000000089
(1735040535.136665) vcan0 136#000200000000000C
(1735040535.136669) vcan0 13A#000000000000000A
(1735040535.136674) vcan0 13F#0000000500000000
(1735040535.136678) vcan0 164#0000C01AA8000022
(1735040535.136682) vcan0 17C#0000000010000003
(1735040535.136685) vcan0 1CF#80050000000F
(1735040535.140965) vcan0 1DC#0200000C
(1735040535.143652) vcan0 183#0000000200001009
(1735040535.144609) vcan0 244#0000000148
(1735040535.145925) vcan0 143#6B6B00C2
(1735040535.153164) vcan0 333#0000000000001E
(1735040535.155370) vcan0 095#800007F400000035
(1735040535.155379) vcan0 1A4#000000080000002F
(1735040535.155383) vcan0 1AA#7FFF00000000682F
(1735040535.155387) vcan0 1B0#000F0000000166
(1735040535.155390) vcan0 039#001B
(1735040535.155395) vcan0 1D0#000000000000000A
(1735040535.155399) vcan0 305#8026
(1735040535.155403) vcan0 166#D0320009
(1735040535.155407) vcan0 158#000000000000000A
(1735040535.155411) vcan0 161#000005500108000D
(1735040535.155426) vcan0 191#010010A1410038
(1735040535.155430) vcan0 18E#00005C
(1735040535.155434) vcan0 133#0000000098
(1735040535.155437) vcan0 136#000200000000001B
(1735040535.155441) vcan0 13A#0000000000000019
(1735040535.155445) vcan0 13F#000000050000001F
(1735040535.155449) vcan0 164#0000C01AA8000031
(1735040535.155452) vcan0 17C#0000000010000012
(1735040535.155456) vcan0 183#0000000900001011
(1735040535.155460) vcan0 143#6B6B00D1
(1735040535.155464) vcan0 095#800007F400000008
(1735040535.155468) vcan0 166#D0320018
(1735040535.155472) vcan0 158#0000000000000019
(1735040535.155476) vcan0 161#000005500108001C
(1735040535.155480) vcan0 191#010010A141000B
(1735040535.155484) vcan0 164#0000C01AA8000004
(1735040535.155487) vcan0 133#00000000A7
(1735040535.155491) vcan0 136#000200000000002A
(1735040535.158641) vcan0 13A#0000000000000028
(1735040535.158665) vcan0 13F#000000050000002E
(1735040535.158669) vcan0 17C#0000000010000021
(1735040535.158673) vcan0 18E#00006B
(1735040535.158677) vcan0 1CF#80050000001E
(1735040535.158680) vcan0 039#002A
(1735040535.158684) vcan0 1DC#0200001B
(1735040535.158688) vcan0 320#000012
(1735040535.158692) vcan0 183#0000000600001023
(1735040535.158696) vcan0 324#7465000000000E1A
(1735040535.158699) vcan0 37C#FD00FD00097F001A
(1735040535.158705) vcan0 40C#0236323239533039
(1735040535.158708) vcan0 454#23EF36
(1735040535.158712) vcan0 143#6B6B00E0
(1735040535.159453) vcan0 244#0000000140
(1735040535.163158) vcan0 095#800007F400000017
(1735040535.163161) vcan0 1A4#000000080000003E
(1735040535.163165) vcan0 1AA#7FFF00000000673F
(1735040535.163169) vcan0 1B0#000F0000000175
(1735040535.163173) vcan0 1D0#000000000000000A
(1735040535.163178) vcan0 166#D0320027
(1735040535.165091) vcan0 158#0000000000000028
(1735040535.165119) vcan0 161#000005500108002B
(1735040535.165124) vcan0 191#010010A141001A
(1735040535.165128) vcan0 133#00000000B6
(1735040535.169272) vcan0 136#0002000000000039
(1735040535.171200) vcan0 13A#0000000000000037
(1735040535.173353) vcan0 13F#000000050000003D
(1735040535.173361) vcan0 164#0000C01AA8000013
(1735040535.173364) vcan0 17C#0000000010000030
(1735040535.173368) vcan0 18E#00007A
(1735040535.173372) vcan0 294#040B0002CF5A001D
(1735040535.173376) vcan0 21E#03E83745220610
(1735040535.174308) vcan0 183#0000000400001034
(1735040535.174324) vcan0 143#6B6B00FF
(1735040535.174328) vcan0 095#800007F400000026
(1735040535.174332) vcan0 039#0039
(1735040535.174336) vcan0 166#D0320036
(1735040535.174340) vcan0 158#0000000000000037
(1735040535.175728) vcan0 244#000000012F
(1735040535.176190) vcan0 161#000005500108003A
(1735040535.176203) vcan0 191#010010A1410029
(1735040535.176208) vcan0 164#0000C01AA8000022
(1735040535.176211) vcan0 133#0000000089
(1735040535.176215) vcan0 136#000200000000000C
(1735040535.176219) vcan0 13A#000000000000000A
(1735040535.176223) vcan0 13F#0000000500000000
(1735040535.176226) vcan0 17C#0000000010000003
(1735040535.176230) vcan0 18E#00004D
(1735040535.178126) vcan0 1CF#80050000002D
(1735040535.178139) vcan0 1DC#0200002A
(1735040535.178143) vcan0 183#0000000A00001001
(1735040535.181020) vcan0 143#6B6B00C2
(1735040535.181047) vcan0 095#800007F400000035
(1735040535.181051) vcan0 1A4#0000000800000001
(1735040535.188238) vcan0 1AA#7FFF000000006702
(1735040535.188260) vcan0 1B0#000F0000000148
(1735040535.188264) vcan0 1D0#000000000000000A
(1735040535.188268) vcan0 166#D0320009
(1735040535.188272) vcan0 158#000000000000000A
(1735040535.188276) vcan0 161#000005500108000D
(1735040535.188280) vcan0 039#000C
(1735040535.188283) vcan0 191#010010A1410038
(1735040535.188287) vcan0 164#0000C01AA8000031
(1735040535.188291) vcan0 133#0000000098
(1735040535.188296) vcan0 136#000200000000001B
(1735040535.188300) vcan0 13A#0000000000000019
(1735040535.188304) vcan0 13F#000000050000001F
(1735040535.188308) vcan0 17C#0000000010000012
(1735040535.188313) vcan0 18E#00005C
(1735040535.188316) vcan0 309#00000000000000A2
(1735040535.188320) vcan0 428#01040000521C01
(1735040535.188324) vcan0 405#000004000000000B
(1735040535.188328) vcan0 183#0000000700001013
(1735040535.190666) vcan0 244#000000013B
(1735040535.191050) vcan0 143#6B6B00D1
(1735040535.191485) vcan0 095#800007F400000008
(1735040535.193856) vcan0 166#D0320018
(1735040535.195757) vcan0 158#0000000000000019
(1735040535.195772) vcan0 161#000005500108001C
(1735040535.195776) vcan0 191#010010A141000B
(1735040535.195782) vcan0 164#0000C01AA8000004
(1735040535.195786) vcan0 133#00000000A7
(1735040535.195790) vcan0 136#000200000000002A
(1735040535.195794) vcan0 13A#0000000000000028
(1735040535.195798) vcan0 13F#000000050000002E
(1735040535.200798) vcan0 17C#0000000010000021
(1735040535.201062) vcan0 244#00000001D1
(1735040535.202946) vcan0 18E#00006B
(1735040535.202953) vcan0 1CF#80050000003C
(1735040535.202957) vcan0 1DC#02000039
(1735040535.202961) vcan0 183#0000000500001024
(1735040535.202965) vcan0 039#001B
(1735040535.202969) vcan0 143#6B6B00E0
(1735040535.202973) vcan0 095#800007F400000017
(1735040535.202977) vcan0 1A4#0000000800000010
(1735040535.202980) vcan0 1AA#7FFF000000006810
(1735040535.202984) vcan0 1B0#000F0000000157
(1735040535.202988) vcan0 1D0#000000000000000A
(1735040535.202992) vcan0 166#D0320027
(1735040535.205335) vcan0 158#0000000000000028
(1735040535.207009) vcan0 161#000005500108002B
(1735040535.207018) vcan0 191#010010A141001A
(1735040535.207022) vcan0 164#0000C01AA8000013
(1735040535.207026) vcan0 133#00000000B6
(1735040535.207030) vcan0 136#0002000000000039
(1735040535.207033) vcan0 13A#0000000000000037
(1735040535.207037) vcan0 13F#000000050000003D
(1735040535.207041) vcan0 17C#0000000010000030
(1735040535.207045) vcan0 18E#00007A
(1735040535.207049) vcan0 294#040B0002CF5A002C
(1735040535.207053) vcan0 21E#03E8374522062F
(1735040535.211190) vcan0 183#0000000B0000103D
(1735040535.212142) vcan0 143#6B6B00FF
(1735040535.212147) vcan0 095#800007F400000026
(1735040535.212151) vcan0 039#002A
(1735040535.214405) vcan0 166#D0320036
(1735040535.216435) vcan0 158#0000000000000037
(1735040535.216444) vcan0 161#000005500108003A
(1735040535.216448) vcan0 191#010010A1410029
(1735040535.216452) vcan0 164#0000C01AA8000022
(1735040535.216456) vcan0 133#0000000089
(1735040535.216460) vcan0 136#000200000000000C
(1735040535.216463) vcan0 13A#000000000000000A
(1735040535.216467) vcan0 13F#0000000500000000
(1735040535.216471) vcan0 17C#0000000010000003
(1735040535.216475) vcan0 18E#00004D
(1735040535.216479) vcan0 1CF#80050000000F
(1735040535.219180) vcan0 1DC#0200000C
(1735040535.219266) vcan0 244#00000001C8
(1735040535.221339) vcan0 183#0000000800001003
(1735040535.221346) vcan0 143#6B6B00C2
(1735040535.221351) vcan0 095#800007F400000035
(1735040535.221355) vcan0 1A4#000000080000002F
(1735040535.221359) vcan0 1AA#7FFF00000000682F
(1735040535.222825) vcan0 1B0#000F0000000166
(1735040535.225027) vcan0 1D0#000000000000000A
(1735040535.225036) vcan0 166#D0320009
(1735040535.225041) vcan0 158#000000000000000A
(1735040535.225045) vcan0 161#000005500108000D
(1735040535.225049) vcan0 191#010010A1410038
(1735040535.225053) vcan0 164#0000C01AA8000031
(1735040535.228241) vcan0 133#0000000098
(1735040535.229984) vcan0 244#000000017A
(1735040535.231904) vcan0 136#000200000000001B
(1735040535.231919) vcan0 039#0039
(1735040535.231923) vcan0 13A#0000000000000019
(1735040535.231927) vcan0 13F#000000050000001F
(1735040535.231931) vcan0 17C#0000000010000012
(1735040535.231935) vcan0 18E#00005C
(1735040535.231939) vcan0 183#0000000D0000101D
(1735040535.231943) vcan0 143#6B6B00D1
(1735040535.231946) vcan0 095#800007F400000008
(1735040535.238933) vcan0 166#D0320018
(1735040535.238954) vcan0 158#0000000000000019
(1735040535.238958) vcan0 161#000005500108001C
(1735040535.238963) vcan0 191#010010A141000B
(1735040535.238967) vcan0 164#0000C01AA8000004
(1735040535.238970) vcan0 133#00000000A7
(1735040535.238976) vcan0 136#000200000000002A
(1735040535.238980) vcan0 13A#0000000000000028
(1735040535.238984) vcan0 13F#000000050000002E
(1735040535.238988) vcan0 17C#0000000010000021
(1735040535.238992) vcan0 18E#00006B
(1735040535.238997) vcan0 1CF#80050000001E
(1735040535.239001) vcan0 1DC#0200001B
(1735040535.239006) vcan0 183#0000000900001020
(1735040535.239009) vcan0 143#6B6B00E0
(1735040535.239013) vcan0 333#0000000000002D
(1735040535.243434) vcan0 039#000C
(1735040535.246777) vcan0 095#800007F400000017
(1735040535.246786) vcan0 1A4#000000080000003E
(1735040535.246790) vcan0 1AA#7FFF00000000673F
(1735040535.246794) vcan0 1B0#000F0000000175
(1735040535.246798) vcan0 1D0#000000000000000A
(1735040535.246801) vcan0 166#D0320027
(1735040535.246805) vcan0 158#0000000000000028
(1735040535.246819) vcan0 161#000005500108002B
(1735040535.246823) vcan0 191#010010A141001A
(1735040535.246826) vcan0 18E#00007A
(1735040535.246830) vcan0 133#00000000B6
(1735040535.246835) vcan0 136#0002000000000039
(1735040535.246839) vcan0 13A#0000000000000037
(1735040535.246843) vcan0 13F#000000050000003D
(1735040535.246847) vcan0 164#0000C01AA8000013
(1735040535.246850) vcan0 17C#0000000010000030
(1735040535.246855) vcan0 294#040B0002CF5A003B
(1735040535.246858) vcan0 305#8035
(1735040535.246862) vcan0 21E#03E8374522063E
(1735040535.247213) vcan0 244#0000000150
(1735040535.249986) vcan0 183#0000000600001032
(1735040535.250004) vcan0 143#6B6B00FF
(1735040535.253181) vcan0 095#800007F400000026
(1735040535.255874) vcan0 166#D0320036
(1735040535.255881) vcan0 039#001B
(1735040535.255887) vcan0 158#0000000000000037
(1735040535.255891) vcan0 161#000005500108003A
(1735040535.255895) vcan0 191#010010A1410029
(1735040535.255898) vcan0 164#0000C01AA8000022
(1735040535.255902) vcan0 133#0000000089
(1735040535.255906) vcan0 136#000200000000000C
(1735040535.255910) vcan0 13A#000000000000000A
(1735040535.255915) vcan0 13F#0000000500000000
(1735040535.261386) vcan0 17C#0000000010000003
(1735040535.261409) vcan0 18E#00004D
(1735040535.261413) vcan0 1CF#80050000002D
(1735040535.262942) vcan0 1DC#0200002A
(1735040535.262952) vcan0 320#000021
(1735040535.262957) vcan0 183#0000000C0000100F
(1735040535.262961) vcan0 324#7465000000000E29
(1735040535.262994) vcan0 37C#FD00FD00097F0029
(1735040535.263002) vcan0 143#6B6B00C2
(1735040535.263006) vcan0 095#800007F400000035
(1735040535.263010) vcan0 1A4#0000000800000001
(1735040535.263014) vcan0 1AA#7FFF000000006702
(1735040535.263018) vcan0 1B0#000F0000000148
(1735040535.263022) vcan0 1D0#000000000000000A
(1735040535.263026) vcan0 166#D0320009
(1735040535.264236) vcan0 244#000000011E
(1735040535.265362) vcan0 158#000000000000000A
(1735040535.265378) vcan0 161#000005500108000D
(1735040535.265382) vcan0 191#010010A1410038
(1735040535.265386) vcan0 18E#00005C
(1735040535.265390) vcan0 133#0000000098
(1735040535.265395) vcan0 136#000200000000001B
(1735040535.268565) vcan0 13A#0000000000000019
(1735040535.271943) vcan0 13F#000000050000001F
(1735040535.271954) vcan0 164#0000C01AA8000031
(1735040535.271958) vcan0 17C#0000000010000012
(1735040535.271962) vcan0 183#0000000900001011
(1735040535.271966) vcan0 143#6B6B00D1
(1735040535.271970) vcan0 095#800007F400000008
(1735040535.275413) vcan0 166#D0320018
(1735040535.275433) vcan0 158#0000000000000019
(1735040535.275437) vcan0 161#000005500108001C
(1735040535.275441) vcan0 039#002A
(1735040535.275445) vcan0 164#0000C01AA8000004
(1735040535.275449) vcan0 191#010010A141000B
(1735040535.276620) vcan0 133#00000000A7
(1735040535.276642) vcan0 136#000200000000002A
(1735040535.276646) vcan0 13A#0000000000000028
(1735040535.276650) vcan0 13F#000000050000002E
(1735040535.276655) vcan0 17C#0000000010000021
(1735040535.276659) vcan0 18E#00006B
(1735040535.276663) vcan0 1CF#80050000003C
(1735040535.280592) vcan0 1DC#02000039
(1735040535.280612) vcan0 183#0000000E0000102B
(1735040535.280616) vcan0 143#6B6B00E0
(1735040535.280620) vcan0 095#800007F400000017
(1735040535.281164) vcan0 244#0000000197
(1735040535.290372) vcan0 1A4#0000000800000010
(1735040535.293029) vcan0 1AA#7FFF000000006810
(1735040535.293733) vcan0 1B0#000F0000000157
(1735040535.293739) vcan0 1D0#000000000000000A
(1735040535.293742) vcan0 166#D0320027
(1735040535.293746) vcan0 158#0000000000000028
(1735040535.293750) vcan0 161#000005500108002B
(1735040535.293754) vcan0 191#010010A141001A
(1735040535.293758) vcan0 164#0000C01AA8000013
(1735040535.293762) vcan0 133#00000000B6
(1735040535.293766) vcan0 136#0002000000000039
(1735040535.293770) vcan0 13A#0000000000000037
(1735040535.293774) vcan0 13F#000000050000003D
(1735040535.293777) vcan0 17C#0000000010000030
(1735040535.293781) vcan0 18E#00007A
(1735040535.293785) vcan0 294#040B0002CF5A000E
(1735040535.293789) vcan0 21E#03E83745220601
(1735040535.293793) vcan0 309#00000000000000B1
(1735040535.293796) vcan0 183#0000000A0000103E
(1735040535.293800) vcan0 039#0039
(1735040535.293804) vcan0 143#6B6B00FF
(1735040535.293808) vcan0 095#800007F400000026
(1735040535.293812) vcan0 166#D0320036
(1735040535.295014) vcan0 244#000000019C
(1735040535.298925) vcan0 158#0000000000000037
(1735040535.300854) vcan0 161#000005500108003A
(1735040535.307610) vcan0 191#010010A1410029
(1735040535.308923) vcan0 164#0000C01AA8000022
(1735040535.308929) vcan0 133#0000000089
(1735040535.308933) vcan0 136#000200000000000C
(1735040535.308937) vcan0 13A#000000000000000A
(1735040535.308940) vcan0 13F#0000000500000000
(1735040535.308944) vcan0 17C#0000000010000003
(1735040535.308948) vcan0 18E#00004D
(1735040535.308952) vcan0 1CF#80050000000F
(1735040535.308956) vcan0 1DC#0200000C
(1735040535.308960) vcan0 183#0000000700001004
(1735040535.308964) vcan0 143#6B6B00C2
(1735040535.308969) vcan0 095#800007F400000035
(1735040535.308973) vcan0 1A4#000000080000002F
(1735040535.308977) vcan0 1AA#7FFF00000000682F
(1735040535.308983) vcan0 1B0#000F0000000166
(1735040535.308987) vcan0 039#000C
(1735040535.308991) vcan0 1D0#000000000000000A
(1735040535.308995) vcan0 166#D0320009
(1735040535.309000) vcan0 158#000000000000000A
(1735040535.309003) vcan0 161#000005500108000D
(1735040535.309007) vcan0 191#010010A1410038
(1735040535.309012) vcan0 18E#00005C
(1735040535.309016) vcan0 133#0000000098
(1735040535.309021) vcan0 136#000200000000001B
(1735040535.309025) vcan0 13A#0000000000000019
(1735040535.309029) vcan0 13F#000000050000001F
(1735040535.309033) vcan0 164#0000C01AA8000031
(1735040535.309037) vcan0 17C#0000000010000012
(1735040535.309041) vcan0 183#0000000D0000101D
(1735040535.309045) vcan0 143#6B6B00D1
(1735040535.311959) vcan0 244#00000001B2
(1735040535.313751) vcan0 095#800007F400000008
(1735040535.315614) vcan0 166#D0320018
(1735040535.315636) vcan0 158#0000000000000019
(1735040535.315645) vcan0 161#000005500108001C
(1735040535.315653) vcan0 191#010010A141000B
(1735040535.315663) vcan0 164#0000C01AA8000004
(1735040535.315672) vcan0 133#00000000A7
(1735040535.315681) vcan0 136#000200000000002A
(1735040535.315691) vcan0 13A#0000000000000028
(1735040535.319907) vcan0 13F#000000050000002E
(1735040535.321467) vcan0 17C#0000000010000021
(1735040535.321475) vcan0 18E#00006B
(1735040535.321479) vcan0 1CF#80050000001E
(1735040535.321483) vcan0 1DC#0200001B
(1735040535.321487) vcan0 183#0000000900001020
(1735040535.321491) vcan0 039#001B
(1735040535.321495) vcan0 143#6B6B00E0
(1735040535.321498) vcan0 095#800007F400000017
(1735040535.321502) vcan0 1A4#000000080000003E
(1735040535.321506) vcan0 1AA#7FFF00000000673F
(1735040535.321510) vcan0 1B0#000F0000000175
(1735040535.324209) vcan0 1D0#000000000000000A
(1735040535.327034) vcan0 244#000000017F
(1735040535.327933) vcan0 166#D0320027
(1735040535.330890) vcan0 158#0000000000000028
(1735040535.332676) vcan0 161#000005500108002B
(1735040535.332684) vcan0 191#010010A141001A
(1735040535.332688) vcan0 164#0000C01AA8000013
(1735040535.332691) vcan0 133#00000000B6
(1735040535.332695) vcan0 136#0002000000000039
(1735040535.332699) vcan0 13A#0000000000000037
(1735040535.332703) vcan0 13F#000000050000003D
(1735040535.332707) vcan0 17C#0000000010000030
(1735040535.332719) vcan0 18E#00007A
(1735040535.332725) vcan0 294#040B0002CF5A001D
(1735040535.332728) vcan0 21E#03E83745220610
(1735040535.332732) vcan0 183#0000000600001032
(1735040535.332736) vcan0 143#6B6B00FF
(1735040535.332740) vcan0 095#800007F400000026
(1735040535.337090) vcan0 166#D0320036
(1735040535.339553) vcan0 158#0000000000000037
(1735040535.339569) vcan0 161#000005500108003A
(1735040535.339578) vcan0 191#010010A1410029
(1735040535.339586) vcan0 164#0000C01AA8000022
(1735040535.339595) vcan0 133#0000000089
(1735040535.339603) vcan0 136#000200000000000C
(1735040535.339612) vcan0 13A#000000000000000A
(1735040535.339620) vcan0 13F#0000000500000000
(1735040535.339628) vcan0 17C#0000000010000003
(1735040535.339637) vcan0 18E#00004D
(1735040535.339645) vcan0 1CF#80050000002D
(1735040535.339654) vcan0 1DC#0200002A
(1735040535.340629) vcan0 183#0000000C0000100F
(1735040535.340658) vcan0 039#002A
(1735040535.340664) vcan0 143#6B6B00C2
(1735040535.340669) vcan0 333#0000000000003C
(1735040535.340673) vcan0 095#800007F400000035
(1735040535.340910) vcan0 244#00000001F0
(1735040535.344460) vcan0 1A4#0000000800000001
(1735040535.345341) vcan0 1AA#7FFF000000006702
(1735040535.345346) vcan0 1B0#000F0000000148
(1735040535.345350) vcan0 1D0#000000000000000A
(1735040535.345354) vcan0 166#D0320009
(1735040535.345358) vcan0 158#000000000000000A
(1735040535.345363) vcan0 161#000005500108000D
(1735040535.346671) vcan0 191#010010A1410038
(1735040535.346692) vcan0 18E#00005C
(1735040535.346696) vcan0 133#0000000098
(1735040535.346700) vcan0 136#000200000000001B
(1735040535.346704) vcan0 13A#0000000000000019
(1735040535.346708) vcan0 13F#000000050000001F
(1735040535.346712) vcan0 164#0000C01AA8000031
(1735040535.346717) vcan0 17C#0000000010000012
(1735040535.349392) vcan0 183#0000000900001011
(1735040535.349411) vcan0 143#6B6B00D1
(1735040535.353733) vcan0 305#8008
(1735040535.354765) vcan0 244#000000018A
(1735040535.355873) vcan0 095#800007F400000008
(1735040535.355881) vcan0 166#D0320018
(1735040535.355885) vcan0 158#0000000000000019
(1735040535.355889) vcan0 161#000005500108001C
(1735040535.355892) vcan0 191#010090A1410003
(1735040535.355896) vcan0 164#0000C01AA8000004
(1735040535.355900) vcan0 133#00000000A7
(1735040535.355904) vcan0 136#000200000000002A
(1735040535.355908) vcan0 13A#0000000000000028
(1735040535.355912) vcan0 13F#000000050000002E
(1735040535.359469) vcan0 17C#0000000010000021
(1735040535.359497) vcan0 18E#00006B
(1735040535.359501) vcan0 1CF#80050000003C
(1735040535.359504) vcan0 1DC#02000039
(1735040535.359508) vcan0 320#000030
(1735040535.359512) vcan0 324#7465000000000E38
(1735040535.359516) vcan0 183#0000000E0000102B
(1735040535.359520) vcan0 37C#FD00FD00097F0038
(1735040535.359523) vcan0 039#0039
(1735040535.359527) vcan0 143#6B6B00E0
(1735040535.363329) vcan0 095#800007F400000017
(1735040535.365309) vcan0 1A4#0000000800000010
(1735040535.365317) vcan0 1AA#7FFF000000006810
(1735040535.365321) vcan0 1B0#000F0000000157
(1735040535.365325) vcan0 1D0#000000000000000A
(1735040535.365329) vcan0 166#D0320027
(1735040535.365333) vcan0 158#0000000000000028
(1735040535.365337) vcan0 161#000005500108002B
(1735040535.365340) vcan0 191#010090A1410012
(1735040535.365345) vcan0 133#00000000B6
(1735040535.365349) vcan0 136#0002000000000039
(1735040535.368714) vcan0 13A#0000000000000037
(1735040535.370891) vcan0 13F#000000050000003D
(1735040535.370900) vcan0 164#0000C01AA8000013
(1735040535.370904) vcan0 17C#0000000010000030
(1735040535.370908) vcan0 18E#00007A
(1735040535.370912) vcan0 294#040B0002CF5A002C
(1735040535.370916) vcan0 21E#03E8374522062F
(1735040535.370919) vcan0 183#0000000A0000103E
(1735040535.370923) vcan0 143#6B6B00FF
(1735040535.370927) vcan0 095#800007F400000026
(1735040535.371378) vcan0 244#000000017E
(1735040535.374137) vcan0 039#000C
(1735040535.375868) vcan0 166#D0320036
(1735040535.375875) vcan0 158#0000000000000037
(1735040535.375879) vcan0 161#000005500108003A
(1735040535.375883) vcan0 191#010090A1410021
(1735040535.375887) vcan0 164#0000C01AA8000022
(1735040535.375891) vcan0 133#0000000089
(1735040535.375895) vcan0 136#000200000000000C
(1735040535.375899) vcan0 13A#000000000000000A
(1735040535.375903) vcan0 13F#0000000500000000
(1735040535.379359) vcan0 17C#0000000010000003
(1735040535.379375) vcan0 18E#00004D
(1735040535.379380) vcan0 1CF#80050000000F
(1735040535.379384) vcan0 1DC#0200000C
(1735040535.379388) vcan0 183#0000000F0000100C
(1735040535.379392) vcan0 143#6B6B00C2
(1735040535.382600) vcan0 095#800007F400000035
(1735040535.382622) vcan0 1A4#000000080000002F
(1735040535.382625) vcan0 1AA#7FFF00000000682F
(1735040535.382629) vcan0 1B0#000F0000000166
(1735040535.382633) vcan0 1D0#000000000000000A
(1735040535.384972) vcan0 244#0000000133
(1735040535.384939) vcan0 166#D0320009
(1735040535.384950) vcan0 158#000000000000000A
(1735040535.384954) vcan0 161#000005500108000D
(1735040535.384958) vcan0 191#010090A1410030
(1735040535.384962) vcan0 18E#00005C
(1735040535.387633) vcan0 133#0000000098
(1735040535.389435) vcan0 136#000200000000001B
(1735040535.392125) vcan0 13A#0000000000000019
(1735040535.392141) vcan0 13F#000000050000001F
(1735040535.392146) vcan0 164#0000C01AA8000031
(1735040535.392152) vcan0 17C#0000000010000012
(1735040535.392156) vcan0 039#001B
(1735040535.392160) vcan0 309#0000000000000084
(1735040535.392165) vcan0 183#0000000B0000101F
(1735040535.392170) vcan0 143#6B6B00D1
(1735040535.392174) vcan0 095#800007F400000008
(1735040535.396146) vcan0 166#D0320018
(1735040535.396170) vcan0 158#0000000000000019
(1735040535.396173) vcan0 161#000005500108001C
(1735040535.396177) vcan0 191#010090A1410003
(1735040535.396181) vcan0 164#0000C01AA8000004
(1735040535.396185) vcan0 133#00000000A7
(1735040535.396197) vcan0 136#000200000000002A
(1735040535.396203) vcan0 13A#0000000000000028
(1735040535.396207) vcan0 13F#000000050000002E
(1735040535.396211) vcan0 17C#0000000010000021
(1735040535.396214) vcan0 18E#00006B
(1735040535.399737) vcan0 1CF#80050000001E
(1735040535.399761) vcan0 1DC#0200001B
(1735040535.399765) vcan0 183#0000000800001021
(1735040535.399769) vcan0 143#6B6B00E0
(1735040535.400863) vcan0 244#0000000102
(1735040535.404793) vcan0 095#800007F400000017
(1735040535.404815) vcan0 039#002A
(1735040535.404821) vcan0 1A4#000000080000003E
(1735040535.404825) vcan0 1AA#7FFF00000000673F
(1735040535.404828) vcan0 1B0#000F0000000175
(1735040535.404832) vcan0 1D0#000000000000000A
(1735040535.404836) vcan0 166#D0320027
(1735040535.404840) vcan0 158#0000000000000028
(1735040535.404844) vcan0 161#000005500108002B
(1735040535.404848) vcan0 191#010090A1410012
(1735040535.408024) vcan0 133#00000000B6
(1735040535.408057) vcan0 136#0002000000000039
(1735040535.408061) vcan0 13A#0000000000000037
(1735040535.408065) vcan0 13F#000000050000003D
(1735040535.408069) vcan0 164#0000C01AA8000013
(1735040535.408073) vcan0 17C#0000000010000030
(1735040535.408076) vcan0 18E#00007A
(1735040535.408080) vcan0 294#040B0002CF5A003B
(1735040535.408084) vcan0 21E#03E8374522063E
(1735040535.408089) vcan0 183#0000000600001032
(1735040535.413400) vcan0 143#6B6B00FF
(1735040535.414856) vcan0 095#800007F400000026
(1735040535.414874) vcan0 166#D0320036
(1735040535.414878) vcan0 158#0000000000000037
(1735040535.414882) vcan0 161#000005500108003A
(1735040535.414886) vcan0 039#0039
(1735040535.414890) vcan0 191#010090A1410021
(1735040535.417261) vcan0 164#0000C01AA8000022
(1735040535.417276) vcan0 133#0000000089
(1735040535.417280) vcan0 136#000200000000000C
(1735040535.417284) vcan0 13A#000000000000000A
(1735040535.417287) vcan0 13F#0000000500000000
(1735040535.417291) vcan0 17C#0000000010000003
(1735040535.417295) vcan0 18E#00004D
(1735040535.417299) vcan0 1CF#80050000002D
(1735040535.417303) vcan0 1DC#0200002A
(1735040535.417307) vcan0 183#0000000400001007
(1735040535.417677) vcan0 244#00000001BA
(1735040535.423550) vcan0 143#6B6B00C2
(1735040535.424520) vcan0 095#800007F400000035
(1735040535.424526) vcan0 1A4#0000000800000001
(1735040535.424530) vcan0 1AA#7FFF000000006702
(1735040535.424534) vcan0 1B0#000F0000000148
(1735040535.424538) vcan0 1D0#000000000000000A
(1735040535.424543) vcan0 166#D0320009
(1735040535.424547) vcan0 158#000000000000000A
(1735040535.424552) vcan0 161#000005500108000D
(1735040535.427633) vcan0 191#010090A1410030
(1735040535.432218) vcan0 164#0000C01AA8000031
(1735040535.433906) vcan0 244#0000000130
(1735040535.434658) vcan0 133#0000000098
(1735040535.434666) vcan0 136#000200000000001B
(1735040535.434670) vcan0 13A#0000000000000019
(1735040535.434674) vcan0 13F#000000050000001F
(1735040535.434679) vcan0 17C#0000000010000012
(1735040535.434683) vcan0 18E#00005C
(1735040535.434688) vcan0 183#0000000300001017
(1735040535.434692) vcan0 143#6B6B00D1
(1735040535.434697) vcan0 039#000C
(1735040535.434701) vcan0 095#800007F400000008
(1735040535.434705) vcan0 166#D0320018
(1735040535.434709) vcan0 158#0000000000000019
(1735040535.434713) vcan0 161#000005500108001C
(1735040535.434717) vcan0 191#010090A1410003
(1735040535.437747) vcan0 164#0000C01AA8000004
(1735040535.440360) vcan0 133#00000000A7
(1735040535.440369) vcan0 136#000200000000002A
(1735040535.440373) vcan0 13A#0000000000000028
(1735040535.440377) vcan0 13F#000000050000002E
(1735040535.440380) vcan0 17C#0000000010000021
(1735040535.440385) vcan0 18E#00006B
(1735040535.440389) vcan0 1CF#80050000003C
(1735040535.440394) vcan0 1DC#02000039
(1735040535.440398) vcan0 183#0000000A0000102F
(1735040535.440402) vcan0 143#6B6B00E0
(1735040535.440406) vcan0 333#0000000000000F
(1735040535.440410) vcan0 095#800007F400000017
(1735040535.442193) vcan0 1A4#0000000800000010
(1735040535.442207) vcan0 1AA#7FFF000000006810
(1735040535.442210) vcan0 1B0#000F0000000157
(1735040535.442214) vcan0 1D0#000000000000000A
(1735040535.445173) vcan0 166#D0320027
(1735040535.445203) vcan0 158#0000000000000028
(1735040535.445207) vcan0 161#000005500108002B
(1735040535.445210) vcan0 191#010090A1410012
(1735040535.445214) vcan0 133#00000000B6
(1735040535.450582) vcan0 136#0002000000000039
(1735040535.450641) vcan0 244#0000000135
(1735040535.453755) vcan0 13A#0000000000000037
(1735040535.453774) vcan0 13F#000000050000003D
(1735040535.453778) vcan0 164#0000C01AA8000013
(1735040535.453782) vcan0 17C#0000000010000030
(1735040535.453786) vcan0 18E#00007A
(1735040535.453790) vcan0 294#040B0002CF5A000E
(1735040535.453793) vcan0 21E#03E83745220601
(1735040535.453797) vcan0 039#001B
(1735040535.453801) vcan0 183#0000000700001031
(1735040535.453805) vcan0 143#6B6B00FF
(1735040535.453809) vcan0 095#800007F400000026
(1735040535.453814) vcan0 166#D0320036
(1735040535.453818) vcan0 305#8017
(1735040535.458357) vcan0 158#0000000000000037
(1735040535.460273) vcan0 161#000005500108003A
(1735040535.460280) vcan0 191#010090A1410021
(1735040535.460284) vcan0 164#0000C01AA8000022
(1735040535.460289) vcan0 133#0000000089
(1735040535.460294) vcan0 136#000200000000000C
(1735040535.460298) vcan0 13A#000000000000000A
(1735040535.460304) vcan0 13F#0000000500000000
(1735040535.460308) vcan0 17C#0000000010000003
(1735040535.460312) vcan0 18E#00004D
(1735040535.460315) vcan0 1CF#80050000000F
(1735040535.460320) vcan0 1DC#0200000C
(1735040535.460324) vcan0 320#000003
(1735040535.460328) vcan0 324#7465000000000E0B
(1735040535.460332) vcan0 183#0000000D0000100E
(1735040535.460336) vcan0 37C#FD00FD00097F000B
(1735040535.460340) vcan0 40C#033133383439000D
(1735040535.460345) vcan0 454#23EF09
(1735040535.460350) vcan0 143#6B6B00C2
(1735040535.460354) vcan0 095#800007F400000035
(1735040535.462493) vcan0 1A4#000000080000002F
(1735040535.463600) vcan0 1AA#7FFF00000000682F
(1735040535.463605) vcan0 1B0#000F0000000166
(1735040535.463609) vcan0 039#002A
(1735040535.463614) vcan0 1D0#000000000000000A
(1735040535.463618) vcan0 166#D0320009
(1735040535.465966) vcan0 158#000000000000000A
(1735040535.465987) vcan0 161#000005500108000D
(1735040535.465991) vcan0 191#010090A1410030
(1735040535.465995) vcan0 18E#00005C
(1735040535.465999) vcan0 133#0000000098
(1735040535.466003) vcan0 136#000200000000001B
(1735040535.466006) vcan0 13A#0000000000000019
(1735040535.466010) vcan0 13F#000000050000001F
(1735040535.466014) vcan0 164#0000C01AA8000031
(1735040535.466822) vcan0 244#0000000129
(1735040535.468578) vcan0 17C#0000000010000012
(1735040535.468592) vcan0 183#0000000900001011
(1735040535.468596) vcan0 143#6B6B00D1
(1735040535.470771) vcan0 095#800007F400000008
(1735040535.475593) vcan0 166#D0320018
(1735040535.475616) vcan0 158#0000000000000019
(1735040535.475620) vcan0 161#000005500108001C
(1735040535.475625) vcan0 191#010090A1410003
(1735040535.475629) vcan0 164#0000C01AA8000004
(1735040535.475633) vcan0 133#00000000A7
(1735040535.475637) vcan0 039#0039
(1735040535.475641) vcan0 136#000200000000002A
(1735040535.478608) vcan0 244#00000001A9
(1735040535.478837) vcan0 13A#0000000000000028
(1735040535.478848) vcan0 13F#000000050000002E
(1735040535.478852) vcan0 17C#0000000010000021
(1735040535.478856) vcan0 18E#00006B
(1735040535.478860) vcan0 1CF#80050000001E
(1735040535.478864) vcan0 1DC#0200001B
(1735040535.478868) vcan0 183#0000000600001023
(1735040535.478871) vcan0 143#6B6B00E0
(1735040535.483257) vcan0 095#800007F400000017
(1735040535.485716) vcan0 1A4#000000080000003E
(1735040535.485723) vcan0 1AA#7FFF00000000673F
(1735040535.485727) vcan0 1B0#000F0000000175
(1735040535.485731) vcan0 1D0#000000000000000A
(1735040535.485735) vcan0 166#D0320027
(1735040535.485739) vcan0 158#0000000000000028
(1735040535.485743) vcan0 161#000005500108002B
(1735040535.485747) vcan0 191#010090A1410012
(1735040535.485750) vcan0 164#0000C01AA8000013
(1735040535.485754) vcan0 133#00000000B6
(1735040535.485758) vcan0 136#0002000000000039
(1735040535.485761) vcan0 13A#0000000000000037
(1735040535.488416) vcan0 13F#000000050000003D
(1735040535.488434) vcan0 17C#0000000010000030
(1735040535.488438) vcan0 18E#00007A
(1735040535.488443) vcan0 294#040B0002CF5A001D
(1735040535.488447) vcan0 21E#03E83745220610
(1735040535.488451) vcan0 309#0000000000000093
(1735040535.488454) vcan0 428#01040000521C10
(1735040535.488458) vcan0 405#000004000000001A
(1735040535.488462) vcan0 183#0000000C0000103C
(1735040535.488466) vcan0 143#6B6B00FF
(1735040535.492232) vcan0 095#800007F400000026
(1735040535.492261) vcan0 039#000C
(1735040535.494093) vcan0 244#00000001F7
(1735040535.496005) vcan0 166#D0320036
(1735040535.496028) vcan0 158#0000000000000037
(1735040535.496033) vcan0 161#000005500108003A
(1735040535.496047) vcan0 191#010090A1410021
(1735040535.496051) vcan0 164#0000C01AA8000022
(1735040535.496055) vcan0 133#0000000089
(1735040535.496058) vcan0 136#000200000000000C
(1735040535.496062) vcan0 13A#000000000000000A
(1735040535.496066) vcan0 13F#0000000500000000
(1735040535.496070) vcan0 17C#0000000010000003
(1735040535.498245) vcan0 18E#00004D
(1735040535.498259) vcan0 1CF#80050000002D
(1735040535.498265) vcan0 1DC#0200002A
(1735040535.498268) vcan0 183#0000000900001002
(1735040535.501572) vcan0 143#6B6B00C2
(1735040535.504204) vcan0 095#800007F400000035
(1735040535.504212) vcan0 1A4#0000000800000001
(1735040535.504216) vcan0 1AA#7FFF000000006702
(1735040535.504219) vcan0 1B0#000F0000000148
(1735040535.504223) vcan0 1D0#000000000000000A
(1735040535.504227) vcan0 166#D0320009
(1735040535.504233) vcan0 158#000000000000000A
(1735040535.506111) vcan0 244#000000014B
(1735040535.508062) vcan0 161#000005500108000D
(1735040535.508078) vcan0 039#001B
(1735040535.508082) vcan0 191#010090A1410030
(1735040535.508086) vcan0 164#0000C01AA8000031
(1735040535.508090) vcan0 133#0000000098
(1735040535.508095) vcan0 136#000200000000001B
(1735040535.508098) vcan0 13A#0000000000000019
(1735040535.508102) vcan0 13F#000000050000001F
(1735040535.508106) vcan0 17C#0000000010000012
(1735040535.508109) vcan0 18E#00005C
(1735040535.508113) vcan0 183#0000000600001014
(1735040535.509225) vcan0 188#00000000
(1735040535.511426) vcan0 143#6B6B00D1
(1735040535.511442) vcan0 095#800007F400000008
(1735040535.516463) vcan0 166#D0320018
(1735040535.516488) vcan0 158#0000000000000019
(1735040535.516493) vcan0 161#000005500108001C
(1735040535.516498) vcan0 191#010090A1410003
(1735040535.516502) vcan0 164#0000C01AA8000004
(1735040535.516506) vcan0 133#00000000A7
(1735040535.516512) vcan0 136#000200000000002A
(1735040535.516516) vcan0 13A#0000000000000028
(1735040535.516520) vcan0 13F#000000050000002E
(1735040535.516524) vcan0 17C#0000000010000021
(1735040535.516528) vcan0 18E#00006B
(1735040535.516533) vcan0 1CF#80050000003C
(1735040535.517285) vcan0 244#00000001AA
(1735040535.519526) vcan0 1DC#02000039
(1735040535.519548) vcan0 183#0000000400001025
(1735040535.519552) vcan0 143#6B6B00E0
(1735040535.519556) vcan0 039#002A
(1735040535.525986) vcan0 095#800007F400000017
(1735040535.526010) vcan0 1A4#0000000800000010
(1735040535.526015) vcan0 1AA#7FFF000000006810
(1735040535.526019) vcan0 1B0#000F0000000157
(1735040535.526023) vcan0 1D0#000000000000000A
(1735040535.526026) vcan0 166#D0320027
(1735040535.526030) vcan0 158#0000000000000028
(1735040535.526034) vcan0 161#000005500108002B
(1735040535.526039) vcan0 191#010090A1410012
(1735040535.526044) vcan0 164#0000C01AA8000013
(1735040535.526047) vcan0 133#00000000B6
(1735040535.526051) vcan0 136#0002000000000039
(1735040535.526057) vcan0 13A#0000000000000037
(1735040535.526061) vcan0 13F#000000050000003D
(1735040535.528120) vcan0 17C#0000000010000030
(1735040535.530001) vcan0 18E#00007A
(1735040535.530008) vcan0 294#040B0002CF5A002C
(1735040535.530012) vcan0 21E#03E8374522062F
(1735040535.530016) vcan0 183#0000000300001035
(1735040535.530020) vcan0 143#6B6B00FF
(1735040535.534658) vcan0 095#800007F400000026
(1735040535.534679) vcan0 166#D0320036
(1735040535.534683) vcan0 039#0039
(1735040535.534687) vcan0 158#0000000000000037
(1735040535.534691) vcan0 161#000005500108003A
(1735040535.534695) vcan0 191#010090A1410021
(1735040535.534737) vcan0 244#00000001E1
(1735040535.537565) vcan0 164#0000C01AA8000022
(1735040535.539768) vcan0 133#0000000089
(1735040535.539783) vcan0 136#000200000000000C
(1735040535.539792) vcan0 13A#000000000000000A
(1735040535.539800) vcan0 13F#0000000500000000
(1735040535.539813) vcan0 17C#0000000010000003
(1735040535.539821) vcan0 18E#00004D
(1735040535.539830) vcan0 1CF#80050000000F
(1735040535.539839) vcan0 1DC#0200000C
(1735040535.539847) vcan0 183#0000000A00001001
(1735040535.539855) vcan0 143#6B6B00C2
(1735040535.539865) vcan0 333#0000000000001E
(1735040535.542648) vcan0 095#800007F400000035
(1735040535.542667) vcan0 1A4#000000080000002F
(1735040535.542671) vcan0 1AA#7FFF00000000682F
(1735040535.542675) vcan0 1B0#000F0000000166
(1735040535.542679) vcan0 1D0#000000000000000A
(1735040535.544703) vcan0 166#D0320009
(1735040535.546455) vcan0 158#000000000000000A
(1735040535.546464) vcan0 161#000005500108000D
(1735040535.546478) vcan0 191#010090A1410030
(1735040535.546482) vcan0 133#0000000098
(1735040535.546494) vcan0 136#000200000000001B
(1735040535.546498) vcan0 13A#0000000000000019
(1735040535.546501) vcan0 13F#000000050000001F
(1735040535.546505) vcan0 164#0000C01AA8000031
(1735040535.546510) vcan0 17C#0000000010000012
(1735040535.546513) vcan0 18E#00005C
(1735040535.549309) vcan0 183#0000000700001013
(1735040535.550805) vcan0 244#0000000110
(1735040535.551238) vcan0 039#000C
(1735040535.551243) vcan0 143#6B6B00D1
(1735040535.551247) vcan0 095#800007F400000008
(1735040535.557446) vcan0 166#D0320018
(1735040535.557478) vcan0 158#0000000000000019
(1735040535.557482) vcan0 161#000005500108001C
(1735040535.557486) vcan0 191#010090A1410003
(1735040535.557491) vcan0 164#0000C01AA8000004
(1735040535.560625) vcan0 133#00000000A7
(1735040535.560632) vcan0 136#000200000000002A
(1735040535.560637) vcan0 13A#0000000000000028
(1735040535.560641) vcan0 13F#000000050000002E
(1735040535.560644) vcan0 17C#0000000010000021
(1735040535.560648) vcan0 18E#00006B
(1735040535.560653) vcan0 1CF#80050000001E
(1735040535.560657) vcan0 1DC#0200001B
(1735040535.560662) vcan0 320#000012
(1735040535.560666) vcan0 324#7465000000000E1A
(1735040535.560669) vcan0 183#0000000500001024
(1735040535.560673) vcan0 37C#FD00FD00097F001A
(1735040535.560677) vcan0 143#6B6B00E0
(1735040535.560681) vcan0 305#8026
(1735040535.560685) vcan0 095#800007F400000017
(1735040535.563208) vcan0 1A4#000000080000003E
(1735040535.563231) vcan0 1AA#7FFF00000000673F
(1735040535.563235) vcan0 1B0#000F0000000175
(1735040535.563239) vcan0 1D0#000000000000000A
(1735040535.563243) vcan0 166#D0320027
(1735040535.566811) vcan0 244#0000000149
(1735040535.567208) vcan0 158#0000000000000028
(1735040535.569196) vcan0 161#000005500108002B
(1735040535.569203) vcan0 191#010090A1410012
(1735040535.569207) vcan0 18E#00007A
(1735040535.569211) vcan0 133#00000000B6
(1735040535.569215) vcan0 136#0002000000000039
(1735040535.569220) vcan0 13A#0000000000000037
(1735040535.569225) vcan0 13F#000000050000003D
(1735040535.569229) vcan0 164#0000C01AA8000013
(1735040535.569292) vcan0 17C#0000000010000030
(1735040535.569300) vcan0 294#040B0002CF5A003B
(1735040535.569304) vcan0 21E#03E8374522063E
(1735040535.569307) vcan0 039#001B
(1735040535.569311) vcan0 183#0000000B0000103D
(1735040535.569315) vcan0 143#6B6B00FF
(1735040535.572397) vcan0 095#800007F400000026
(1735040535.576970) vcan0 244#00000001EC
(1735040535.577623) vcan0 166#D0320036
(1735040535.577631) vcan0 158#0000000000000037
(1735040535.577635) vcan0 161#000005500108003A
(1735040535.577641) vcan0 191#010090A1410021
(1735040535.577645) vcan0 164#0000C01AA8000022
(1735040535.577649) vcan0 133#0000000089
(1735040535.577653) vcan0 136#000200000000000C
(1735040535.577658) vcan0 13A#000000000000000A
(1735040535.577661) vcan0 13F#0000000500000000
(1735040535.577665) vcan0 17C#0000000010000003
(1735040535.577669) vcan0 18E#00004D
(1735040535.577672) vcan0 1CF#80050000002D
(1735040535.577676) vcan0 1DC#0200002A
(1735040535.577681) vcan0 183#0000000800001003
(1735040535.581222) vcan0 143#6B6B00C2
(1735040535.582907) vcan0 095#800007F400000035
(1735040535.582915) vcan0 1A4#0000000800000001
(1735040535.582918) vcan0 1AA#7FFF000000006702
(1735040535.582923) vcan0 1B0#000F0000000148
(1735040535.582926) vcan0 039#002A
(1735040535.582930) vcan0 1D0#000000000000000A
(1735040535.586797) vcan0 166#D0320009
(1735040535.589467) vcan0 158#000000000000000A
(1735040535.591634) vcan0 161#000005500108000D
(1735040535.591650) vcan0 191#010090A1410030
(1735040535.591655) vcan0 164#0000C01AA8000031
(1735040535.591659) vcan0 133#0000000098
(1735040535.591663) vcan0 136#000200000000001B
(1735040535.591667) vcan0 13A#0000000000000019
(1735040535.591671) vcan0 13F#000000050000001F
(1735040535.591675) vcan0 17C#0000000010000012
(1735040535.591678) vcan0 18E#00005C
(1735040535.591682) vcan0 309#00000000000000A2
(1735040535.591686) vcan0 183#0000000D0000101D
(1735040535.591690) vcan0 143#6B6B00D1
(1735040535.591694) vcan0 095#800007F400000008
(1735040535.592432) vcan0 244#00000001D9
(1735040535.594851) vcan0 166#D0320018
(1735040535.594868) vcan0 158#0000000000000019
(1735040535.594872) vcan0 161#000005500108001C
(1735040535.594875) vcan0 191#010090A1410003
(1735040535.598899) vcan0 164#0000C01AA8000004
(1735040535.598936) vcan0 133#00000000A7
(1735040535.598954) vcan0 136#000200000000002A
(1735040535.598959) vcan0 13A#0000000000000028
(1735040535.598963) vcan0 13F#000000050000002E
(1735040535.598967) vcan0 17C#0000000010000021
(1735040535.598971) vcan0 18E#00006B
(1735040535.598975) vcan0 1CF#80050000003C
(1735040535.598979) vcan0 1DC#02000039
(1735040535.598983) vcan0 183#0000000900001020
(1735040535.598989) vcan0 039#0039
(1735040535.598993) vcan0 143#6B6B00E0
(1735040535.600832) vcan0 095#800007F400000017
(1735040535.603425) vcan0 1A4#0000000800000010
(1735040535.603455) vcan0 1AA#7FFF000000006810
(1735040535.603459) vcan0 1B0#000F0000000157
(1735040535.603463) vcan0 1D0#000000000000000A
(1735040535.603468) vcan0 166#D0320027
(1735040535.607249) vcan0 158#0000000000000028
(1735040535.607270) vcan0 161#000005500108002B
(1735040535.607274) vcan0 191#010090A1410012
(1735040535.607278) vcan0 164#0000C01AA8000013
(1735040535.607282) vcan0 133#00000000B6
(1735040535.607286) vcan0 136#0002000000000039
(1735040535.607290) vcan0 13A#0000000000000037
(1735040535.607295) vcan0 13F#000000050000003D
(1735040535.607299) vcan0 17C#0000000010000030
(1735040535.607303) vcan0 18E#00007A
(1735040535.607308) vcan0 294#040B0002CF5A000E
(1735040535.607312) vcan0 21E#03E83745220601
(1735040535.609905) vcan0 244#000000012E
(1735040535.610711) vcan0 183#0000000600001032
(1735040535.610726) vcan0 143#6B6B00FF
(1735040535.610730) vcan0 095#800007F400000026
(1735040535.610734) vcan0 5A1#9600000000006210
(1735040535.612312) vcan0 039#000C
(1735040535.614301) vcan0 166#D0320036
(1735040535.614317) vcan0 158#0000000000000037
(1735040535.616022) vcan0 161#000005500108003A
(1735040535.617792) vcan0 191#010090A1410021
(1735040535.617800) vcan0 164#0000C01AA8000022
(1735040535.617804) vcan0 133#0000000089
(1735040535.617808) vcan0 136#000200000000000C
(1735040535.617812) vcan0 13A#000000000000000A
(1735040535.617816) vcan0 13F#0000000500000000
(1735040535.617819) vcan0 17C#0000000010000003
(1735040535.617823) vcan0 18E#00004D
(1735040535.617827) vcan0 1CF#80050000000F
(1735040535.617831) vcan0 1DC#0200000C
(1735040535.617834) vcan0 183#0000000C0000100F
(1735040535.619651) vcan0 143#6B6B00C2
(1735040535.621437) vcan0 095#800007F400000035
(1735040535.623106) vcan0 1A4#000000080000002F
(1735040535.623114) vcan0 1AA#7FFF00000000682F
(1735040535.623118) vcan0 1B0#000F0000000166
(1735040535.623122) vcan0 1D0#000000000000000A
(1735040535.623125) vcan0 166#D0320009
(1735040535.623934) vcan0 244#00000001C9
(1735040535.625156) vcan0 158#000000000000000A
(1735040535.626690) vcan0 161#000005500108000D
(1735040535.626696) vcan0 191#010090A1410030
(1735040535.626700) vcan0 164#0000C01AA8000031
(1735040535.626703) vcan0 133#0000000098
(1735040535.626707) vcan0 136#000200000000001B
(1735040535.626711) vcan0 13A#0000000000000019
(1735040535.626715) vcan0 13F#000000050000001F
(1735040535.626718) vcan0 17C#0000000010000012
(1735040535.626722) vcan0 18E#00005C
(1735040535.626726) vcan0 039#001B
(1735040535.631412) vcan0 183#0000000900001011
(1735040535.631435) vcan0 143#6B6B00D1
(1735040535.631440) vcan0 095#800007F400000008
(1735040535.633441) vcan0 166#D0320018
(1735040535.637212) vcan0 158#0000000000000019
(1735040535.639421) vcan0 161#000005500108001C
(1735040535.639430) vcan0 191#010090A1410003
(1735040535.639434) vcan0 164#0000C01AA8000004
(1735040535.639438) vcan0 133#00000000A7
(1735040535.639442) vcan0 136#000200000000002A
(1735040535.639446) vcan0 13A#0000000000000028
(1735040535.639450) vcan0 13F#000000050000002E
(1735040535.639454) vcan0 17C#0000000010000021
(1735040535.639458) vcan0 18E#00006B
(1735040535.639461) vcan0 1CF#80050000001E
(1735040535.639465) vcan0 1DC#0200001B
(1735040535.639468) vcan0 183#0000000600001023
(1735040535.639472) vcan0 143#6B6B00E0
(1735040535.640162) vcan0 244#00000001A6
(1735040535.642915) vcan0 333#0000000000002D
(1735040535.644570) vcan0 039#002A
(1735040535.644578) vcan0 095#800007F400000017
(1735040535.644582) vcan0 1A4#000000080000003E
(1735040535.644586) vcan0 1AA#7FFF00000000673F
(1735040535.644590) vcan0 1B0#000F0000000175
(1735040535.644593) vcan0 1D0#000000000000000A
(1735040535.644597) vcan0 166#D0320027
(1735040535.644601) vcan0 158#0000000000000028
(1735040535.644604) vcan0 161#000005500108002B
(1735040535.648079) vcan0 191#010090A1410012
(1735040535.653556) vcan0 133#00000000B6
(1735040535.655645) vcan0 136#0002000000000039
(1735040535.655654) vcan0 13A#0000000000000037
(1735040535.655658) vcan0 13F#000000050000003D
(1735040535.655662) vcan0 164#0000C01AA8000013
(1735040535.655666) vcan0 17C#0000000010000030
(1735040535.655670) vcan0 18E#00007A
(1735040535.655675) vcan0 294#040B0002CF5A001D
(1735040535.655679) vcan0 21E#03E83745220610
(1735040535.655685) vcan0 183#0000000C0000103C
(1735040535.655690) vcan0 143#6B6B00FF
(1735040535.655694) vcan0 095#800007F400000026
(1735040535.655698) vcan0 166#D0320036
(1735040535.655701) vcan0 039#0039
(1735040535.655705) vcan0 158#0000000000000037
(1735040535.655709) vcan0 161#000005500108003A
(1735040535.655715) vcan0 191#010010A1410029
(1735040535.655718) vcan0 164#0000C01AA8000022
(1735040535.655723) vcan0 133#0000000089
(1735040535.655727) vcan0 136#000200000000000C
(1735040535.655731) vcan0 13A#000000000000000A
(1735040535.656079) vcan0 244#0000000187
(1735040535.658318) vcan0 13F#0000000500000000
(1735040535.659939) vcan0 17C#0000000010000003
(1735040535.659947) vcan0 18E#00004D
(1735040535.659952) vcan0 1CF#80050000002D
(1735040535.659956) vcan0 1DC#0200002A
(1735040535.659960) vcan0 320#000021
(1735040535.659964) vcan0 324#7465000000000E29
(1735040535.659970) vcan0 183#0000000900001002
(1735040535.659974) vcan0 37C#FD00FD00097F0029
(1735040535.659979) vcan0 143#6B6B00C2
(1735040535.663665) vcan0 095#800007F800000031
(1735040535.665850) vcan0 1A4#0000000800000001
(1735040535.665859) vcan0 1AA#7FFF000000006702
(1735040535.665864) vcan0 1B0#000F0000000148
(1735040535.665867) vcan0 1D0#000000000000000A
(1735040535.665871) vcan0 166#D0320009
(1735040535.665875) vcan0 158#000000000000000A
(1735040535.665879) vcan0 161#000005500108000D
(1735040535.665884) vcan0 191#010010A1410038
(1735040535.665887) vcan0 133#0000000098
(1735040535.665891) vcan0 136#000200000000001B
(1735040535.665895) vcan0 13A#0000000000000019
(1735040535.665898) vcan0 13F#000000050000001F
(1735040535.668432) vcan0 164#0000C01AA8000031
(1735040535.670212) vcan0 039#000C
(1735040535.670218) vcan0 17C#0000000010000012
(1735040535.670222) vcan0 18E#00005C
(1735040535.670227) vcan0 305#8035
(1735040535.670231) vcan0 183#0000000E0000101C
(1735040535.670235) vcan0 143#6B6B00D1
(1735040535.670239) vcan0 095#800007F800000004
(1735040535.671965) vcan0 244#00000001B7
(1735040535.676554) vcan0 166#D0320018
(1735040535.676589) vcan0 158#0000000000000019
(1735040535.676594) vcan0 161#000005500108001C
(1735040535.676598) vcan0 191#010010A141000B
(1735040535.676603) vcan0 164#0000C01AA8000004
(1735040535.676608) vcan0 133#00000000A7
(1735040535.676612) vcan0 136#000200000000002A
(1735040535.676616) vcan0 13A#0000000000000028
(1735040535.676620) vcan0 13F#000000050000002E
(1735040535.676624) vcan0 17C#0000000010000021
(1735040535.676628) vcan0 18E#00006B
(1735040535.676634) vcan0 1CF#80050000003C
(1735040535.676639) vcan0 1DC#02000039
(1735040535.679906) vcan0 183#0000000A0000102F
(1735040535.679927) vcan0 143#6B6B00E0
(1735040535.682218) vcan0 095#800007F800000013
(1735040535.686522) vcan0 039#001B
(1735040535.690341) vcan0 1A4#0000000800000010
(1735040535.690349) vcan0 1AA#7FFF000000006810
(1735040535.690353) vcan0 1B0#000F0000000157
(1735040535.690356) vcan0 1D0#000000000000000A
(1735040535.690360) vcan0 166#D0320027
(1735040535.690364) vcan0 158#0000000000000028
(1735040535.690368) vcan0 161#000005500108002B
(1735040535.690372) vcan0 191#010010A141001A
(1735040535.690377) vcan0 164#0000C01AA8000013
(1735040535.690380) vcan0 133#00000000B6
(1735040535.690384) vcan0 136#0002000000000039
(1735040535.690388) vcan0 13A#0000000000000037
(1735040535.690394) vcan0 13F#000000050000003D
(1735040535.690398) vcan0 17C#0000000010000030
(1735040535.690402) vcan0 18E#00007A
(1735040535.690407) vcan0 294#040B0002CF5A002C
(1735040535.690411) vcan0 21E#03E8374522062F
(1735040535.690414) vcan0 309#00000000000000B1
(1735040535.690418) vcan0 183#0000000700001031
(1735040535.690422) vcan0 143#6B6B00FF
(1735040535.690426) vcan0 095#800007F800000022
(1735040535.690653) vcan0 244#000000010A
(1735040535.694816) vcan0 166#D0320036
(1735040535.694842) vcan0 158#0000000000000037
(1735040535.694847) vcan0 161#000005500108003A
(1735040535.694851) vcan0 191#010010A1410029
(1735040535.697708) vcan0 164#0000C01AA8000022
(1735040535.697736) vcan0 133#0000000089
(1735040535.697740) vcan0 136#000200000000000C
(1735040535.697745) vcan0 13A#000000000000000A
(1735040535.697749) vcan0 039#002A
(1735040535.697752) vcan0 13F#0000000500000000
(1735040535.697756) vcan0 17C#0000000010000003
(1735040535.697760) vcan0 18E#00004D
(1735040535.697764) vcan0 1CF#80050000000F
(1735040535.697769) vcan0 1DC#0200000C
(1735040535.697773) vcan0 183#0000000D0000100E
(1735040535.700232) vcan0 143#6B6B00C2
(1735040535.700254) vcan0 095#800007F800000031
(1735040535.702937) vcan0 1A4#000000080000002F
(1735040535.702917) vcan0 244#000000011C
(1735040535.704514) vcan0 1AA#7FFF00000000682F
(1735040535.704520) vcan0 1B0#000F0000000166
(1735040535.704524) vcan0 1D0#000000000000000A
(1735040535.704528) vcan0 166#D0320009
(1735040535.704532) vcan0 158#000000000000000A
(1735040535.704537) vcan0 161#000005500108000D
(1735040535.707633) vcan0 191#010010A1410038
(1735040535.710375) vcan0 133#0000000098
(1735040535.710384) vcan0 136#000200000000001B
(1735040535.710389) vcan0 13A#0000000000000019
(1735040535.710394) vcan0 13F#000000050000001F
(1735040535.710398) vcan0 164#0000C01AA8000031
(1735040535.710402) vcan0 17C#0000000010000012
(1735040535.710406) vcan0 18E#00005C
(1735040535.710411) vcan0 183#0000000900001011
(1735040535.710415) vcan0 143#6B6B00D1
(1735040535.710419) vcan0 039#0039
(1735040535.710422) vcan0 095#800007F400000008
(1735040535.714566) vcan0 166#D0320018
(1735040535.716350) vcan0 158#0000000000000019
(1735040535.716360) vcan0 161#000005500108001C
(1735040535.716364) vcan0 191#010010A141000B
(1735040535.716368) vcan0 164#0000C01AA8000004
(1735040535.716373) vcan0 133#00000000A7
(1735040535.716376) vcan0 136#000200000000002A
(1735040535.716380) vcan0 13A#0000000000000028
(1735040535.716384) vcan0 13F#000000050000002E
(1735040535.716388) vcan0 17C#0000000010000021
(1735040535.716392) vcan0 18E#00006B
(1735040535.719208) vcan0 244#00000001A4
(1735040535.720257) vcan0 1CF#80050000001E
(1735040535.720271) vcan0 1DC#0200001B
(1735040535.720276) vcan0 183#0000000E0000102B
(1735040535.720280) vcan0 143#6B6B00E0
(1735040535.720284) vcan0 095#800007F400000017
(1735040535.722251) vcan0 1A4#000000080000003E
(1735040535.722265) vcan0 1AA#7FFF00000000673F
(1735040535.722269) vcan0 1B0#000F0000000175
(1735040535.722273) vcan0 1D0#000000000000000A
(1735040535.725890) vcan0 166#D0320027
(1735040535.728121) vcan0 158#0000000000000028
(1735040535.728129) vcan0 161#000005500108002B
(1735040535.728133) vcan0 039#000C
(1735040535.728137) vcan0 191#010010A141001A
(1735040535.728141) vcan0 133#00000000B6
(1735040535.728145) vcan0 136#0002000000000039
(1735040535.728148) vcan0 13A#0000000000000037
(1735040535.728152) vcan0 13F#000000050000003D
(1735040535.728156) vcan0 164#0000C01AA8000013
(1735040535.728160) vcan0 17C#0000000010000030
(1735040535.728163) vcan0 18E#00007A
(1735040535.728167) vcan0 294#040B0002CF5A003B
(1735040535.728171) vcan0 21E#03E8374522063E
(1735040535.728175) vcan0 183#0000000A0000103E
(1735040535.730841) vcan0 143#6B6B00FF
(1735040535.730993) vcan0 244#00000001C5
(1735040535.731495) vcan0 095#800007F400000026
(1735040535.733759) vcan0 166#D0320036
(1735040535.735362) vcan0 158#0000000000000037
(1735040535.735369) vcan0 161#000005500108003A
(1735040535.735373) vcan0 191#010010A1410029
(1735040535.735377) vcan0 164#0000C01AA8000022
(1735040535.735381) vcan0 133#0000000089
(1735040535.738180) vcan0 136#000200000000000C
(1735040535.738202) vcan0 13A#000000000000000A
(1735040535.738206) vcan0 13F#0000000500000000
(1735040535.738210) vcan0 17C#0000000010000003
(1735040535.738214) vcan0 18E#00004D
(1735040535.738218) vcan0 1CF#80050000002D
(1735040535.738222) vcan0 1DC#0200002A
(1735040535.738226) vcan0 183#0000000700001004
(1735040535.740263) vcan0 143#6B6B00C2
(1735040535.740280) vcan0 333#0000000000003C
(1735040535.740284) vcan0 095#800007F400000035
(1735040535.743604) vcan0 1A4#0000000800000001
(1735040535.743624) vcan0 1AA#7FFF000000006801
(1735040535.743628) vcan0 1B0#000F0000000148
(1735040535.743632) vcan0 1D0#000000000000000A
(1735040535.743636) vcan0 166#D0320009
(1735040535.743640) vcan0 039#001B
(1735040535.746670) vcan0 158#000000000000000A
(1735040535.747306) vcan0 244#000000014F
(1735040535.748606) vcan0 161#000005500108000D
(1735040535.748613) vcan0 191#010010A1410038
(1735040535.748617) vcan0 133#0000000098
(1735040535.748628) vcan0 136#000200000000001B
(1735040535.748632) vcan0 13A#0000000000000019
(1735040535.748636) vcan0 13F#000000050000001F
(1735040535.748641) vcan0 164#0000C01AA8000031
(1735040535.748644) vcan0 17C#0000000010000012
(1735040535.748649) vcan0 18E#00005C
(1735040535.748652) vcan0 183#0000000D0000101D
(1735040535.748656) vcan0 143#6B6B00D1
(1735040535.751188) vcan0 095#800007F800000004
(1735040535.754248) vcan0 166#D0320018
(1735040535.754257) vcan0 158#0000000000000019
(1735040535.757319) vcan0 161#000005500108001C
(1735040535.757341) vcan0 191#010010A141000B
(1735040535.757346) vcan0 164#0000C01AA8000004
(1735040535.757350) vcan0 133#00000000A7
(1735040535.757353) vcan0 136#000200000000002A
(1735040535.757359) vcan0 13A#0000000000000028
(1735040535.757364) vcan0 13F#000000050000002E
(1735040535.757368) vcan0 17C#0000000010000021
(1735040535.757372) vcan0 18E#00006B
(1735040535.757375) vcan0 1CF#80050000003C
(1735040535.757379) vcan0 1DC#02000039
(1735040535.757384) vcan0 320#000030
(1735040535.757388) vcan0 324#7465000000000E38
(1735040535.757393) vcan0 183#0000000900001020
(1735040535.759923) vcan0 37C#FD00FD00097F0038
(1735040535.761661) vcan0 039#002A
(1735040535.762438) vcan0 244#000000015B
(1735040535.763725) vcan0 40C#0000000004000013
(1735040535.765675) vcan0 454#23EF18
(1735040535.765681) vcan0 143#6B6B00E0
(1735040535.765686) vcan0 095#800007F800000013
(1735040535.765690) vcan0 1A4#0000000800000010
(1735040535.765694) vcan0 1AA#7FFF000000006810
(1735040535.765699) vcan0 1B0#000F0000000157
(1735040535.765702) vcan0 1D0#000000000000000A
(1735040535.765706) vcan0 166#D0320027
(1735040535.765710) vcan0 158#0000000000000028
(1735040535.765715) vcan0 161#000005500108002B
(1735040535.765719) vcan0 191#010010A141001A
(1735040535.765723) vcan0 133#00000000B6
(1735040535.765729) vcan0 136#0002000000000039
(1735040535.765733) vcan0 13A#0000000000000037
(1735040535.765737) vcan0 13F#000000050000003D
(1735040535.769855) vcan0 164#0000C01AA8000013
(1735040535.772034) vcan0 17C#0000000010000030
(1735040535.772044) vcan0 18E#00007A
(1735040535.772048) vcan0 294#040B0002CF5A000E
(1735040535.772052) vcan0 21E#03E83745220601
(1735040535.772056) vcan0 183#0000000600001032
(1735040535.772059) vcan0 143#6B6B00FF
(1735040535.772063) vcan0 095#800007F800000022
(1735040535.772067) vcan0 039#0039
(1735040535.772071) vcan0 305#8008
(1735040535.775811) vcan0 166#D0320036
(1735040535.775830) vcan0 158#0000000000000037
(1735040535.775834) vcan0 161#000005500108003A
(1735040535.775838) vcan0 191#010010A1410029
(1735040535.775842) vcan0 164#0000C01AA8000022
(1735040535.775846) vcan0 133#0000000089
(1735040535.775849) vcan0 136#000200000000000C
(1735040535.775853) vcan0 13A#000000000000000A
(1735040535.775857) vcan0 13F#0000000500000000
(1735040535.777307) vcan0 244#0000000193
(1735040535.777966) vcan0 17C#0000000010000003
(1735040535.780352) vcan0 18E#00004D
(1735040535.780361) vcan0 1CF#80050000000F
(1735040535.780365) vcan0 1DC#0200000C
(1735040535.780369) vcan0 183#0000000C0000100F
(1735040535.780373) vcan0 143#6B6B00C2
(1735040535.780377) vcan0 095#800007F800000031
(1735040535.784588) vcan0 1A4#000000080000002F
(1735040535.784616) vcan0 1AA#7FFF00000000682F
(1735040535.784620) vcan0 1B0#000F0000000166
(1735040535.784624) vcan0 1D0#000000000000000A
(1735040535.784628) vcan0 166#D0320009
(1735040535.784631) vcan0 158#000000000000000A
(1735040535.784635) vcan0 161#000005500108000D
(1735040535.786090) vcan0 191#010010A1410038
(1735040535.786138) vcan0 164#0000C01AA8000031
(1735040535.786142) vcan0 133#0000000098
(1735040535.786146) vcan0 136#000200000000001B
(1735040535.786150) vcan0 039#000C
(1735040535.786154) vcan0 13A#0000000000000019
(1735040535.786158) vcan0 13F#000000050000001F
(1735040535.787850) vcan0 17C#0000000010000012
(1735040535.787870) vcan0 18E#00005C
(1735040535.787874) vcan0 309#0000000000000084
(1735040535.787878) vcan0 428#01040000521C2F
(1735040535.787882) vcan0 405#0000040000000029
(1735040535.787887) vcan0 183#0000000900001011
(1735040535.792042) vcan0 143#6B6B00D1
(1735040535.792062) vcan0 095#800007F800000004
(1735040535.792771) vcan0 244#00000001EB
(1735040535.795526) vcan0 166#D0320018
(1735040535.798378) vcan0 158#0000000000000019
(1735040535.798390) vcan0 161#000005500108001C
(1735040535.798394) vcan0 191#010010A141000B
(1735040535.798406) vcan0 164#0000C01AA8000004
(1735040535.798410) vcan0 133#00000000A7
(1735040535.798414) vcan0 136#000200000000002A
(1735040535.798418) vcan0 13A#0000000000000028
(1735040535.798422) vcan0 13F#000000050000002E
(1735040535.798426) vcan0 17C#0000000010000021
(1735040535.798430) vcan0 18E#00006B
(1735040535.798433) vcan0 1CF#80050000001E
(1735040535.798437) vcan0 1DC#0200001B
(1735040535.798442) vcan0 183#0000000E0000102B
(1735040535.798446) vcan0 143#6B6B00E0
(1735040535.802377) vcan0 244#00000001E8
(1735040535.805355) vcan0 095#800007F800000013
(1735040535.805380) vcan0 039#001B
(1735040535.805385) vcan0 1A4#000000080000003E
(1735040535.805388) vcan0 1AA#7FFF00000000673F
(1735040535.805392) vcan0 1B0#000F0000000175
(1735040535.805396) vcan0 1D0#000000000000000A
(1735040535.805400) vcan0 166#D0320027
(1735040535.805404) vcan0 158#0000000000000028
(1735040535.805408) vcan0 161#000005500108002B
(1735040535.805411) vcan0 191#010010A141001A
(1735040535.805415) vcan0 164#0000C01AA8000013
(1735040535.805419) vcan0 133#00000000B6
(1735040535.805423) vcan0 136#0002000000000039
(1735040535.808848) vcan0 13A#0000000000000037
(1735040535.808884) vcan0 13F#000000050000003D
(1735040535.808889) vcan0 17C#0000000010000030
(1735040535.808893) vcan0 18E#00007A
(1735040535.808897) vcan0 294#040B0002CF5A001D
(1735040535.808900) vcan0 21E#03E83745220610
(1735040535.808904) vcan0 183#0000000A0000103E
(1735040535.808908) vcan0 143#6B6B00FF
(1735040535.812788) vcan0 095#800007F400000026
(1735040535.813056) vcan0 244#0000000139
(1735040535.816571) vcan0 166#D0320036
(1735040535.818746) vcan0 158#0000000000000037
(1735040535.818755) vcan0 161#000005500108003A
(1735040535.818759) vcan0 039#002A
(1735040535.818763) vcan0 191#010010A1410029
(1735040535.818767) vcan0 164#0000C01AA8000022
(1735040535.818771) vcan0 133#0000000089
(1735040535.818775) vcan0 136#000200000000000C
(1735040535.818779) vcan0 13A#000000000000000A
(1735040535.818782) vcan0 13F#0000000500000000
(1735040535.818786) vcan0 17C#0000000010000003
(1735040535.818790) vcan0 18E#00004D
(1735040535.818794) vcan0 1CF#80050000002D
(1735040535.818797) vcan0 1DC#0200002A
(1735040535.818801) vcan0 183#0000000F0000100C
(1735040535.818805) vcan0 143#6B6B00C2
(1735040535.822803) vcan0 095#800007F400000035
(1735040535.826905) vcan0 1A4#0000000800000001
(1735040535.826916) vcan0 1AA#7FFF000000006801
(1735040535.826920) vcan0 1B0#000F0000000148
(1735040535.826924) vcan0 1D0#000000000000000A
(1735040535.826928) vcan0 166#D0320009
(1735040535.826932) vcan0 158#000000000000000A
(1735040535.826937) vcan0 161#000005500108000D
(1735040535.826941) vcan0 191#010010A1410038
(1735040535.826944) vcan0 164#0000C01AA8000031
(1735040535.826948) vcan0 133#0000000098
(1735040535.826952) vcan0 136#000200000000001B
(1735040535.826955) vcan0 13A#0000000000000019
(1735040535.826959) vcan0 13F#000000050000001F
(1735040535.826964) vcan0 17C#0000000010000012
(1735040535.826968) vcan0 18E#00005C
(1735040535.827121) vcan0 244#0000000105
(1735040535.831849) vcan0 183#0000000B0000101F
(1735040535.833743) vcan0 143#6B6B00D1
(1735040535.833750) vcan0 039#0039
(1735040535.833754) vcan0 095#800007F400000008
(1735040535.833757) vcan0 166#D0320018
(1735040535.838333) vcan0 244#00000001B8
(1735040535.845862) vcan0 158#0000000000000019
(1735040535.845883) vcan0 161#000005500108001C
(1735040535.845887) vcan0 191#010010A141000B
(1735040535.845893) vcan0 164#0000C01AA8000004
(1735040535.845897) vcan0 133#00000000A7
(1735040535.845900) vcan0 136#000200000000002A
(1735040535.845904) vcan0 13A#0000000000000028
(1735040535.845908) vcan0 13F#000000050000002E
(1735040535.845912) vcan0 17C#0000000010000021
(1735040535.845915) vcan0 18E#00006B
(1735040535.845919) vcan0 1CF#80050000003C
(1735040535.845923) vcan0 1DC#02000039
(1735040535.845927) vcan0 183#0000000800001021
(1735040535.845931) vcan0 143#6B6B00E0
(1735040535.845935) vcan0 333#0000000000000F
(1735040535.845938) vcan0 095#800007F400000017
(1735040535.845942) vcan0 1A4#0000000800000010
(1735040535.845946) vcan0 1AA#7FFF000000006810
(1735040535.845950) vcan0 1B0#000F0000000157
(1735040535.845955) vcan0 1D0#000000000000000A
(1735040535.845958) vcan0 166#D0320027
(1735040535.845962) vcan0 039#000C
(1735040535.845966) vcan0 158#0000000000000028
(1735040535.845970) vcan0 161#000005500108002B
(1735040535.845973) vcan0 191#010010A141001A
(1735040535.845986) vcan0 133#00000000B6
(1735040535.845991) vcan0 136#0002000000000039
(1735040535.845995) vcan0 13A#0000000000000037
(1735040535.845999) vcan0 13F#000000050000003D
(1735040535.846003) vcan0 164#0000C01AA8000013
(1735040535.850090) vcan0 244#00000001D8
(1735040535.852223) vcan0 17C#0000000010000030
(1735040535.857974) vcan0 18E#00007A
(1735040535.862049) vcan0 294#040B0002CF5A002C
(1735040535.865900) vcan0 21E#03E8374522062F
(1735040535.865914) vcan0 183#0000000600001032
(1735040535.865918) vcan0 143#6B6B00FF
(1735040535.865922) vcan0 095#800007F400000026
(1735040535.865925) vcan0 166#D0320036
(1735040535.865931) vcan0 158#0000000000000037
(1735040535.865934) vcan0 161#000005500108003A
(1735040535.865938) vcan0 191#010010A1410029
(1735040535.865942) vcan0 164#0000C01AA8000022
(1735040535.865946) vcan0 133#0000000089
(1735040535.865949) vcan0 136#000200000000000C
(1735040535.865953) vcan0 13A#000000000000000A
(1735040535.865957) vcan0 13F#0000000500000000
(1735040535.865961) vcan0 17C#0000000010000003
(1735040535.865965) vcan0 18E#00004D
(1735040535.865969) vcan0 1CF#80050000000F
(1735040535.865974) vcan0 1DC#0200000C
(1735040535.865978) vcan0 320#000003
(1735040535.865981) vcan0 324#7465000000000E0B
(1735040535.865985) vcan0 183#0000000400001007
(1735040535.865989) vcan0 37C#FD00FD00097F000B
(1735040535.865993) vcan0 143#6B6B00C2
(1735040535.865997) vcan0 095#800007F400000035
(1735040535.866000) vcan0 1A4#000000080000002F
(1735040535.866004) vcan0 1AA#7FFF00000000682F
(1735040535.866008) vcan0 1B0#000F0000000166
(1735040535.866012) vcan0 1D0#000000000000000A
(1735040535.866015) vcan0 039#001B
(1735040535.866019) vcan0 166#D0320009
(1735040535.866023) vcan0 158#000000000000000A
(1735040535.866026) vcan0 161#000005500108000D
(1735040535.866030) vcan0 191#010010A1410038
(1735040535.866034) vcan0 133#0000000098
(1735040535.866039) vcan0 136#000200000000001B
(1735040535.866042) vcan0 13A#0000000000000019
(1735040535.866046) vcan0 13F#000000050000001F
(1735040535.866050) vcan0 164#0000C01AA8000031
(1735040535.866842) vcan0 244#00000001DB
(1735040535.867906) vcan0 17C#0000000010000012
(1735040535.867918) vcan0 18E#00005C
(1735040535.867922) vcan0 183#0000000300001017
(1735040535.871685) vcan0 143#6B6B00D1
(1735040535.874150) vcan0 095#800007F400000008
(1735040535.874158) vcan0 166#D0320018
(1735040535.874162) vcan0 158#0000000000000019
(1735040535.877677) vcan0 161#000005500108001C
(1735040535.877699) vcan0 191#010010A141000B
(1735040535.877703) vcan0 164#0000C01AA8000004
(1735040535.877707) vcan0 133#00000000A7
(1735040535.877711) vcan0 136#000200000000002A
(1735040535.877715) vcan0 13A#0000000000000028
(1735040535.877719) vcan0 13F#000000050000002E
(1735040535.877723) vcan0 17C#0000000010000021
(1735040535.877727) vcan0 18E#00006B
(1735040535.877730) vcan0 1CF#80050000001E
(1735040535.877734) vcan0 039#002A
(1735040535.877738) vcan0 1DC#0200001B
(1735040535.877742) vcan0 183#0000000A0000102F
(1735040535.877746) vcan0 305#8017
(1735040535.882719) vcan0 143#6B6B00E0
(1735040535.885093) vcan0 095#800007F400000017
(1735040535.885101) vcan0 1A4#000000080000003E
(1735040535.885106) vcan0 1AA#7FFF00000000673F
(1735040535.885111) vcan0 1B0#000F0000000175
(1735040535.885115) vcan0 1D0#000000000000000A
(1735040535.885119) vcan0 166#D0320027
(1735040535.885124) vcan0 158#0000000000000028
(1735040535.885128) vcan0 161#000005500108002B
(1735040535.885131) vcan0 191#010010A141001A
(1735040535.885135) vcan0 164#0000C01AA8000013
(1735040535.887601) vcan0 133#00000000B6
(1735040535.887836) vcan0 244#0000000186
(1735040535.890148) vcan0 136#0002000000000039
(1735040535.892773) vcan0 13A#0000000000000037
(1735040535.892780) vcan0 13F#000000050000003D
(1735040535.892784) vcan0 17C#0000000010000030
(1735040535.892789) vcan0 18E#00007A
(1735040535.892793) vcan0 294#040B0002CF5A003B
(1735040535.892797) vcan0 21E#03E8374522063E
(1735040535.892800) vcan0 309#0000000000000093
(1735040535.892804) vcan0 183#0000000700001031
(1735040535.892808) vcan0 143#6B6B00FF
(1735040535.892812) vcan0 095#800007F400000026
(1735040535.892816) vcan0 039#0039
(1735040535.897805) vcan0 166#D0320036
(1735040535.897826) vcan0 158#0000000000000037
(1735040535.897831) vcan0 161#000005500108003A
(1735040535.897835) vcan0 191#010010A1410029
(1735040535.897838) vcan0 164#0000C01AA8000022
(1735040535.897851) vcan0 133#0000000089
(1735040535.897855) vcan0 136#000200000000000C
(1735040535.897858) vcan0 13A#000000000000000A
(1735040535.897862) vcan0 13F#0000000500000000
(1735040535.897866) vcan0 17C#0000000010000003
(1735040535.897870) vcan0 18E#00004D
(1735040535.897874) vcan0 1CF#80050000002D
(1735040535.897877) vcan0 1DC#0200002A
(1735040535.897881) vcan0 183#0000000D0000100E
(1735040535.902307) vcan0 143#6B6B00C2
(1735040535.902332) vcan0 095#800007F400000035
(1735040535.902336) vcan0 1A4#0000000800000001
(1735040535.902340) vcan0 1AA#7FFF000000006801
(1735040535.902344) vcan0 1B0#000F0000000148
(1735040535.902348) vcan0 1D0#000000000000000A
(1735040535.903231) vcan0 244#0000000129
(1735040535.907830) vcan0 166#D0320009
(1735040535.907906) vcan0 158#000000000000000A
(1735040535.907911) vcan0 161#000005500108000D
(1735040535.907916) vcan0 191#010010A1410038
(1735040535.907921) vcan0 039#000C
(1735040535.907925) vcan0 133#0000000098
(1735040535.907929) vcan0 136#000200000000001B
(1735040535.907934) vcan0 13A#0000000000000019
(1735040535.907938) vcan0 13F#000000050000001F
(1735040535.907941) vcan0 164#0000C01AA8000031
(1735040535.907946) vcan0 17C#0000000010000012
(1735040535.907950) vcan0 18E#00005C
(1735040535.907954) vcan0 183#0000001100001018
(1735040535.909956) vcan0 143#6B6B00D1
(1735040535.912890) vcan0 095#800007F400000008
(1735040535.914973) vcan0 166#D0320018
(1735040535.914982) vcan0 158#0000000000000019
(1735040535.914986) vcan0 161#000005500108001C
(1735040535.914990) vcan0 191#010010A141000B
(1735040535.914994) vcan0 164#0000C01AA8000004
(1735040535.917386) vcan0 133#00000000A7
(1735040535.917401) vcan0 136#000200000000002A
(1735040535.917406) vcan0 13A#0000000000000028
(1735040535.917410) vcan0 13F#000000050000002E
(1735040535.917413) vcan0 17C#0000000010000021
(1735040535.917417) vcan0 18E#00006B
(1735040535.917421) vcan0 1CF#80050000003C
(1735040535.917425) vcan0 1DC#02000039
(1735040535.917428) vcan0 183#0000000C0000102D
(1735040535.919899) vcan0 244#00000001A2
(1735040535.922336) vcan0 039#001B
(1735040535.924868) vcan0 143#6B6B00E0
(1735040535.924876) vcan0 095#800007F400000017
(1735040535.924881) vcan0 1A4#0000000800000010
(1735040535.924885) vcan0 1AA#7FFF000000006810
(1735040535.924889) vcan0 1B0#000F0000000157
(1735040535.924893) vcan0 1D0#000000000000000A
(1735040535.924896) vcan0 166#D0320027
(1735040535.924900) vcan0 158#0000000000000028
(1735040535.924904) vcan0 161#000005500108002B
(1735040535.924908) vcan0 191#010010A141001A
(1735040535.930106) vcan0 164#0000C01AA8000013
(1735040535.931669) vcan0 244#000000014A
(1735040535.932369) vcan0 133#00000000B6
(1735040535.932378) vcan0 136#0002000000000039
(1735040535.932382) vcan0 13A#0000000000000037
(1735040535.932386) vcan0 13F#000000050000003D
(1735040535.932390) vcan0 17C#0000000010000030
(1735040535.932394) vcan0 18E#00007A
(1735040535.932397) vcan0 294#040B0002CF5A000E
(1735040535.932401) vcan0 21E#03E83745220601
(1735040535.932405) vcan0 183#000000090000103F
(1735040535.932409) vcan0 143#6B6B00FF
(1735040535.932413) vcan0 095#800007F400000026
(1735040535.932416) vcan0 039#002A
(1735040535.935304) vcan0 166#D0320036
(1735040535.935324) vcan0 158#0000000000000037
(1735040535.935328) vcan0 161#000005500108003A
(1735040535.935333) vcan0 191#010010A1410029
(1735040535.935337) vcan0 164#0000C01AA8000022
(1735040535.935341) vcan0 133#0000000089
(1735040535.935345) vcan0 136#000200000000000C
(1735040535.940761) vcan0 13A#000000000000000A
(1735040535.942764) vcan0 13F#0000000500000000
(1735040535.942773) vcan0 17C#0000000010000003
(1735040535.942777) vcan0 18E#00004D
(1735040535.942781) vcan0 1CF#80050000000F
(1735040535.942785) vcan0 1DC#0200000C
(1735040535.942789) vcan0 183#0000000600001005
(1735040535.942793) vcan0 143#6B6B00C2
(1735040535.942797) vcan0 333#0000000000001E
(1735040535.942802) vcan0 095#800007F400000035
(1735040535.942806) vcan0 1A4#000000080000002F
(1735040535.942810) vcan0 1AA#7FFF00000000682F
(1735040535.942814) vcan0 1B0#000F0000000166
(1735040535.942819) vcan0 1D0#000000000000000A
(1735040535.946709) vcan0 166#D0320009
(1735040535.946733) vcan0 158#000000000000000A
(1735040535.946739) vcan0 161#000005500108000D
(1735040535.946743) vcan0 191#010010A1410038
(1735040535.946747) vcan0 133#0000000098
(1735040535.946760) vcan0 136#000200000000001B
(1735040535.946764) vcan0 13A#0000000000000019
(1735040535.946768) vcan0 13F#000000050000001F
(1735040535.946772) vcan0 164#0000C01AA8000031
(1735040535.946776) vcan0 17C#0000000010000012
(1735040535.946781) vcan0 18E#00005C
(1735040535.946784) vcan0 039#0039
(1735040535.948940) vcan0 183#0000000C0000101E
(1735040535.949846) vcan0 244#00000001BD
(1735040535.951300) vcan0 143#6B6B00D1
(1735040535.951314) vcan0 095#800007F400000008
(1735040535.956412) vcan0 166#D0320018
(1735040535.956438) vcan0 158#0000000000000019
(1735040535.956442) vcan0 161#000005500108001C
(1735040535.956448) vcan0 191#010090A1410003
(1735040535.956452) vcan0 164#0000C01AA8000004
(1735040535.956457) vcan0 133#00000000A7
(1735040535.956461) vcan0 136#000200000000002A
(1735040535.956465) vcan0 13A#0000000000000028
(1735040535.956469) vcan0 13F#000000050000002E
(1735040535.956473) vcan0 17C#0000000010000021
(1735040535.956477) vcan0 18E#00006B
(1735040535.956481) vcan0 1CF#80050000001E
(1735040535.960099) vcan0 1DC#0200001B
(1735040535.960122) vcan0 320#000012
(1735040535.960126) vcan0 324#7465000000000E1A
(1735040535.960130) vcan0 37C#FD00FD00097F001A
(1735040535.960136) vcan0 183#0000001000001028
(1735040535.960139) vcan0 143#6B6B00E0
(1735040535.962289) vcan0 244#0000000109
(1735040535.965173) vcan0 095#800007F400000017
(1735040535.966969) vcan0 1A4#000000080000003E
(1735040535.966977) vcan0 1AA#7FFF00000000673F
(1735040535.966981) vcan0 1B0#000F0000000175
(1735040535.966985) vcan0 1D0#000000000000000A
(1735040535.966989) vcan0 166#D0320027
(1735040535.966993) vcan0 158#0000000000000028
(1735040535.966997) vcan0 161#000005500108002B
(1735040535.967001) vcan0 191#010090A1410012
(1735040535.967005) vcan0 133#00000000B6
(1735040535.967009) vcan0 136#0002000000000039
(1735040535.967013) vcan0 13A#0000000000000037
(1735040535.967016) vcan0 13F#000000050000003D
(1735040535.967021) vcan0 164#0000C01AA8000013
(1735040535.967025) vcan0 17C#0000000010000030
(1735040535.967029) vcan0 18E#00007A
(1735040535.967033) vcan0 294#040B0002CF5A001D
(1735040535.967037) vcan0 039#000C
(1735040535.967042) vcan0 21E#03E83745220610
(1735040535.972107) vcan0 183#0000000C0000103C
(1735040535.972130) vcan0 143#6B6B00FF
(1735040535.972134) vcan0 095#800007F400000026
(1735040535.976430) vcan0 166#D0320036
(1735040535.976459) vcan0 158#0000000000000037
(1735040535.976463) vcan0 161#000005500108003A
(1735040535.976467) vcan0 191#010090A1410021
(1735040535.976471) vcan0 164#0000C01AA8000022
(1735040535.976475) vcan0 133#0000000089
(1735040535.976478) vcan0 136#000200000000000C
(1735040535.976482) vcan0 13A#000000000000000A
(1735040535.976486) vcan0 13F#0000000500000000
(1735040535.976491) vcan0 17C#0000000010000003
(1735040535.976495) vcan0 18E#00004D
(1735040535.976499) vcan0 1CF#80050000002D
(1735040535.979954) vcan0 1DC#0200002A
(1735040535.979977) vcan0 183#0000000900001002
(1735040535.979982) vcan0 143#6B6B00C2
(1735040535.979986) vcan0 305#8026
(1735040535.980847) vcan0 244#0000000110
(1735040535.984669) vcan0 095#800007F400000035
(1735040535.987061) vcan0 1A4#0000000800000001
(1735040535.987068) vcan0 1AA#7FFF000000006801
(1735040535.987072) vcan0 1B0#000F0000000148
(1735040535.987076) vcan0 1D0#000000000000000A
(1735040535.987080) vcan0 166#D0320009
(1735040535.987084) vcan0 158#000000000000000A
(1735040535.987088) vcan0 161#000005500108000D
(1735040535.987092) vcan0 191#010090A1410030
(1735040535.987096) vcan0 164#0000C01AA8000031
(1735040535.987100) vcan0 133#0000000098
(1735040535.987104) vcan0 136#000200000000001B
(1735040535.987107) vcan0 13A#0000000000000019
(1735040535.987111) vcan0 13F#000000050000001F
(1735040535.987115) vcan0 17C#0000000010000012
(1735040535.987119) vcan0 18E#00005C
(1735040535.987123) vcan0 309#00000000000000A2
(1735040535.990952) vcan0 039#001B
(1735040535.990976) vcan0 183#0000000600001014
(1735040535.990981) vcan0 143#6B6B00D1
(1735040535.990984) vcan0 095#800007F400000008
(1735040535.992420) vcan0 244#000000013B
(1735040535.994496) vcan0 166#D0320018
(1735040535.997060) vcan0 158#0000000000000019
(1735040535.997070) vcan0 161#000005500108001C
(1735040535.997074) vcan0 191#010090A1410003
(1735040535.997077) vcan0 133#00000000A7
(1735040535.997082) vcan0 136#000200000000002A
(1735040535.997085) vcan0 13A#0000000000000028
(1735040535.997089) vcan0 13F#000000050000002E
(1735040535.997102) vcan0 164#0000C01AA8000004
(1735040535.997105) vcan0 17C#0000000010000021
(1735040535.997110) vcan0 18E#00006B
(1735040535.997114) vcan0 1CF#80050000003C
(1735040535.997118) vcan0 1DC#02000039
(1735040535.999671) vcan0 183#0000000C0000102D
(1735040536.004686) vcan0 143#6B6B00E0
(1735040536.006876) vcan0 244#00000001B6
(1735040536.007052) vcan0 095#800007F400000017
(1735040536.007060) vcan0 1A4#0000000800000010
(1735040536.007064) vcan0 1AA#7FFF000000006810
(1735040536.007068) vcan0 1B0#000F0000000157
(1735040536.007072) vcan0 039#002A
(1735040536.007076) vcan0 1D0#000000000000000A
(1735040536.007080) vcan0 166#D0320027
(1735040536.007083) vcan0 158#0000000000000028
(1735040536.007087) vcan0 161#000005500108002B
(1735040536.007091) vcan0 191#010090A1410012
(1735040536.007095) vcan0 133#00000000B6
(1735040536.007099) vcan0 136#0002000000000039
(1735040536.007102) vcan0 13A#0000000000000037
(1735040536.007108) vcan0 13F#000000050000003D
(1735040536.007112) vcan0 164#0000C01AA8000013
(1735040536.007116) vcan0 17C#0000000010000030
(1735040536.007121) vcan0 18E#00007A
(1735040536.007125) vcan0 294#040B0002CF5A002C
(1735040536.007129) vcan0 21E#03E8374522062F
(1735040536.010603) vcan0 183#0000001000001037
(1735040536.010623) vcan0 143#6B6B00FF
(1735040536.010627) vcan0 095#800007F400000026
(1735040536.015277) vcan0 166#D0320036
(1735040536.016351) vcan0 188#00000000
(1735040536.018056) vcan0 158#0000000000000037
(1735040536.018064) vcan0 161#000005500108003A
(1735040536.018068) vcan0 191#010090A1410021
(1735040536.018073) vcan0 164#0000C01AA8000022
(1735040536.018077) vcan0 133#0000000089
(1735040536.018080) vcan0 136#000200000000000C
(1735040536.018084) vcan0 13A#000000000000000A
(1735040536.018088) vcan0 13F#0000000500000000
(1735040536.018092) vcan0 17C#0000000010000003
(1735040536.018096) vcan0 18E#00004D
(1735040536.018101) vcan0 1CF#80050000000F
(1735040536.018104) vcan0 039#0039
(1735040536.018108) vcan0 1DC#0200000C
(1735040536.018112) vcan0 183#0000000C0000100F
(1735040536.022016) vcan0 143#6B6B00C2
(1735040536.022038) vcan0 095#800007F400000035
(1735040536.022043) vcan0 1A4#000000080000002F
(1735040536.022047) vcan0 1AA#7FFF00000000682F
(1735040536.022050) vcan0 1B0#000F0000000166
(1735040536.022056) vcan0 1D0#000000000000000A
(1735040536.024014) vcan0 166#D0320009
(1735040536.027635) vcan0 158#000000000000000A
(1735040536.027645) vcan0 161#000005500108000D
(1735040536.027649) vcan0 191#010090A1410030
(1735040536.027654) vcan0 133#0000000098
(1735040536.027658) vcan0 136#000200000000001B
(1735040536.027662) vcan0 13A#0000000000000019
(1735040536.027666) vcan0 13F#000000050000001F
(1735040536.027670) vcan0 164#0000C01AA8000031
(1735040536.027674) vcan0 17C#0000000010000012
(1735040536.027679) vcan0 18E#00005C
(1735040536.027683) vcan0 183#0000001000001019
(1735040536.029933) vcan0 143#6B6B00D1
(1735040536.029949) vcan0 039#000C
(1735040536.031845) vcan0 095#800007F400000008
(1735040536.035176) vcan0 166#D0320018
(1735040536.035198) vcan0 158#0000000000000019
(1735040536.035202) vcan0 161#000005500108001C
(1735040536.035206) vcan0 191#010090A1410003
(1735040536.035210) vcan0 164#0000C01AA8000004
(1735040536.035215) vcan0 133#00000000A7
(1735040536.036021) vcan0 244#00000001F6
(1735040536.039630) vcan0 136#000200000000002A
(1735040536.039650) vcan0 13A#0000000000000028
(1735040536.039653) vcan0 13F#000000050000002E
(1735040536.039659) vcan0 17C#0000000010000021
(1735040536.039663) vcan0 18E#00006B
(1735040536.039667) vcan0 1CF#80050000001E
(1735040536.039671) vcan0 1DC#0200001B
(1735040536.039674) vcan0 183#0000000C0000102D
(1735040536.039678) vcan0 143#6B6B00E0
(1735040536.039682) vcan0 333#0000000000002D
(1735040536.043617) vcan0 095#800007F400000017
(1735040536.045990) vcan0 1A4#000000080000003E
(1735040536.045998) vcan0 1AA#7FFF00000000673F
(1735040536.046002) vcan0 1B0#000F0000000175
(1735040536.046006) vcan0 1D0#000000000000000A
(1735040536.046011) vcan0 166#D0320027
(1735040536.046014) vcan0 158#0000000000000028
(1735040536.046018) vcan0 161#000005500108002B
(1735040536.046022) vcan0 191#010090A1410012
(1735040536.046026) vcan0 133#00000000B6
(1735040536.046031) vcan0 136#0002000000000039
(1735040536.046035) vcan0 13A#0000000000000037
(1735040536.046039) vcan0 13F#000000050000003D
(1735040536.046051) vcan0 164#0000C01AA8000013
(1735040536.051174) vcan0 17C#0000000010000030
(1735040536.051203) vcan0 18E#00007A
(1735040536.051207) vcan0 294#040B0002CF5A003B
(1735040536.051211) vcan0 21E#03E8374522063E
(1735040536.051215) vcan0 183#000000090000103F
(1735040536.051219) vcan0 143#6B6B00FF
(1735040536.051223) vcan0 039#001B
(1735040536.051227) vcan0 095#800007F400000026
(1735040536.053833) vcan0 244#0000000143
(1735040536.053866) vcan0 166#D0320036
(1735040536.056838) vcan0 158#0000000000000037
(1735040536.056867) vcan0 161#000005500108003A
(1735040536.056872) vcan0 191#010090A1410021
(1735040536.056876) vcan0 164#0000C01AA8000022
(1735040536.056910) vcan0 133#0000000089
(1735040536.060696) vcan0 136#000200000000000C
(1735040536.060707) vcan0 13A#000000000000000A
(1735040536.060711) vcan0 13F#0000000500000000
(1735040536.060715) vcan0 17C#0000000010000003
(1735040536.060719) vcan0 18E#00004D
(1735040536.060723) vcan0 1CF#80050000002D
(1735040536.060727) vcan0 1DC#0200002A
(1735040536.060730) vcan0 320#000021
(1735040536.060735) vcan0 324#7465000000000E29
(1735040536.060738) vcan0 183#0000000E0000100D
(1735040536.060742) vcan0 37C#FD00FD00097F0029
(1735040536.060746) vcan0 40C#014A484D46413325
(1735040536.060750) vcan0 454#23EF27
(1735040536.060754) vcan0 143#6B6B00C2
(1735040536.060759) vcan0 095#800007F400000035
(1735040536.063849) vcan0 1A4#0000000800000001
(1735040536.063875) vcan0 1AA#7FFF000000006801
(1735040536.063879) vcan0 1B0#000F0000000148
(1735040536.063884) vcan0 1D0#000000000000000A
(1735040536.063888) vcan0 166#D0320009
(1735040536.067378) vcan0 158#000000000000000A
(1735040536.067401) vcan0 161#000005500108000D
(1735040536.067405) vcan0 191#010090A1410030
(1735040536.067409) vcan0 133#0000000098
(1735040536.067413) vcan0 136#000200000000001B
(1735040536.067417) vcan0 13A#0000000000000019
(1735040536.067423) vcan0 13F#000000050000001F
(1735040536.067427) vcan0 164#0000C01AA8000031
(1735040536.067430) vcan0 17C#0000000010000012
(1735040536.067434) vcan0 18E#00005C
(1735040536.070738) vcan0 244#000000012C
(1735040536.071500) vcan0 183#0000000A00001010
(1735040536.071520) vcan0 143#6B6B00D1
(1735040536.071525) vcan0 095#800007F400000008
(1735040536.071530) vcan0 039#002A
(1735040536.075648) vcan0 166#D0320018
(1735040536.075668) vcan0 158#0000000000000019
(1735040536.075673) vcan0 161#000005500108001C
(1735040536.075677) vcan0 191#010090A1410003
(1735040536.075681) vcan0 164#0000C01AA8000004
(1735040536.075685) vcan0 133#00000000A7
(1735040536.075689) vcan0 136#000200000000002A
(1735040536.075693) vcan0 13A#0000000000000028
(1735040536.078364) vcan0 13F#000000050000002E
(1735040536.080162) vcan0 17C#0000000010000021
(1735040536.080170) vcan0 18E#00006B
(1735040536.080175) vcan0 1CF#80050000003C
(1735040536.080179) vcan0 1DC#02000039
(1735040536.080183) vcan0 183#0000000700001022
(1735040536.080187) vcan0 143#6B6B00E0
(1735040536.082502) vcan0 095#800007F400000017
(1735040536.082519) vcan0 1A4#0000000800000010
(1735040536.082524) vcan0 1AA#7FFF000000006810
(1735040536.082528) vcan0 1B0#000F0000000157
(1735040536.082531) vcan0 1D0#000000000000000A
(1735040536.083714) vcan0 244#0000000141
(1735040536.085198) vcan0 166#D0320027
(1735040536.085204) vcan0 039#0039
(1735040536.085255) vcan0 158#0000000000000028
(1735040536.085269) vcan0 161#000005500108002B
(1735040536.085274) vcan0 191#010090A1410012
(1735040536.085278) vcan0 305#8035
(1735040536.085282) vcan0 164#0000C01AA8000013
(1735040536.085285) vcan0 133#00000000B6
(1735040536.089769) vcan0 136#0002000000000039
(1735040536.089794) vcan0 13A#0000000000000037
(1735040536.089798) vcan0 13F#000000050000003D
(1735040536.089802) vcan0 17C#0000000010000030
(1735040536.089806) vcan0 18E#00007A
(1735040536.089810) vcan0 294#040B0002CF5A000E
(1735040536.089814) vcan0 21E#03E83745220601
(1735040536.089818) vcan0 309#00000000000000B1
(1735040536.089822) vcan0 428#01040000521C3E
(1735040536.089826) vcan0 405#0000040000000038
(1735040536.089830) vcan0 183#0000000D0000103B
(1735040536.089833) vcan0 143#6B6B00FF
(1735040536.093225) vcan0 095#800007F400000026
(1735040536.093244) vcan0 166#D0320036
(1735040536.095686) vcan0 158#0000000000000037
(1735040536.095705) vcan0 161#000005500108003A
(1735040536.095709) vcan0 191#010090A1410021
(1735040536.095714) vcan0 164#0000C01AA8000022
(1735040536.095726) vcan0 133#0000000089
(1735040536.095730) vcan0 136#000200000000000C
(1735040536.095734) vcan0 13A#000000000000000A
(1735040536.097013) vcan0 244#0000000128
(1735040536.099163) vcan0 13F#0000000500000000
(1735040536.099185) vcan0 17C#0000000010000003
(1735040536.099189) vcan0 18E#00004D
(1735040536.099221) vcan0 1CF#80050000000F
(1735040536.099228) vcan0 1DC#0200000C
(1735040536.099234) vcan0 183#0000000900001002
(1735040536.099239) vcan0 039#000C
(1735040536.099243) vcan0 143#6B6B00C2
(1735040536.100752) vcan0 095#800007F400000035
(1735040536.102948) vcan0 1A4#000000080000002F
(1735040536.106783) vcan0 1AA#7FFF00000000682F
(1735040536.106794) vcan0 1B0#000F0000000166
(1735040536.106798) vcan0 1D0#000000000000000A
(1735040536.106802) vcan0 166#D0320009
(1735040536.106806) vcan0 158#000000000000000A
(1735040536.106810) vcan0 161#000005500108000D
(1735040536.106816) vcan0 191#010090A1410030
(1735040536.106820) vcan0 18E#00005C
(1735040536.106823) vcan0 133#0000000098
(1735040536.106827) vcan0 136#000200000000001B
(1735040536.106831) vcan0 13A#0000000000000019
(1735040536.106835) vcan0 13F#000000050000001F
(1735040536.106839) vcan0 164#0000C01AA8000031
(1735040536.106843) vcan0 17C#0000000010000012
(1735040536.109452) vcan0 183#0000000E0000101C
(1735040536.113370) vcan0 244#00000001EE
(1735040536.113598) vcan0 143#6B6B00D1
(1735040536.113604) vcan0 095#800007F400000008
(1735040536.113609) vcan0 039#001B
(1735040536.113613) vcan0 166#D0320018
(1735040536.117672) vcan0 158#0000000000000019
(1735040536.120135) vcan0 161#000005500108001C
(1735040536.120145) vcan0 191#010090A1410003
(1735040536.120150) vcan0 164#0000C01AA8000004
(1735040536.120154) vcan0 133#00000000A7
(1735040536.120158) vcan0 136#000200000000002A
(1735040536.120161) vcan0 13A#0000000000000028
(1735040536.120165) vcan0 13F#000000050000002E
(1735040536.120169) vcan0 17C#0000000010000021
(1735040536.120173) vcan0 18E#00006B
(1735040536.120178) vcan0 1CF#80050000001E
(1735040536.120182) vcan0 1DC#0200001B
(1735040536.120186) vcan0 183#0000000A0000102F
(1735040536.120190) vcan0 143#6B6B00E0
(1735040536.124571) vcan0 095#800007F400000017
(1735040536.125883) vcan0 1A4#000000080000003E
(1735040536.127974) vcan0 1AA#7FFF00000000673F
(1735040536.127982) vcan0 1B0#000F0000000175
(1735040536.127987) vcan0 1D0#000000000000000A
(1735040536.127991) vcan0 166#D0320027
(1735040536.127995) vcan0 158#0000000000000028
(1735040536.127999) vcan0 161#000005500108002B
(1735040536.128003) vcan0 191#010090A1410012
(1735040536.128007) vcan0 164#0000C01AA8000013
(1735040536.128011) vcan0 133#00000000B6
(1735040536.128015) vcan0 136#0002000000000039
(1735040536.128019) vcan0 13A#0000000000000037
(1735040536.128023) vcan0 13F#000000050000003D
(1735040536.128027) vcan0 17C#0000000010000030
(1735040536.128031) vcan0 18E#00007A
(1735040536.128035) vcan0 294#040B0002CF5A001D
(1735040536.128038) vcan0 21E#03E83745220610
(1735040536.128042) vcan0 039#002A
(1735040536.128046) vcan0 183#0000000F00001039
(1735040536.129371) vcan0 244#0000000165
(1735040536.131680) vcan0 143#6B6B00FF
(1735040536.131700) vcan0 095#800007F400000026
(1735040536.137102) vcan0 166#D0320036
(1735040536.137126) vcan0 158#0000000000000037
(1735040536.137130) vcan0 161#000005500108003A
(1735040536.137134) vcan0 191#010090A1410021
(1735040536.137138) vcan0 164#0000C01AA8000022
(1735040536.137143) vcan0 133#0000000089
(1735040536.137148) vcan0 136#000200000000000C
(1735040536.137152) vcan0 13A#000000000000000A
(1735040536.137157) vcan0 13F#0000000500000000
(1735040536.137161) vcan0 17C#0000000010000003
(1735040536.137165) vcan0 18E#00004D
(1735040536.137171) vcan0 1CF#80050000002D
(1735040536.137175) vcan0 1DC#0200002A
(1735040536.140304) vcan0 183#0000001300001007
(1735040536.142793) vcan0 143#6B6B00C2
(1735040536.142804) vcan0 333#0000000000003C
(1735040536.142809) vcan0 095#800007F400000035
(1735040536.142813) vcan0 1A4#0000000800000001
(1735040536.142817) vcan0 1AA#7FFF000000006801
(1735040536.142822) vcan0 1B0#000F0000000148
(1735040536.142826) vcan0 1D0#000000000000000A
(1735040536.147896) vcan0 166#D0320009
(1735040536.147921) vcan0 158#000000000000000A
(1735040536.147925) vcan0 161#000005500108000D
(1735040536.147929) vcan0 191#010090A1410030
(1735040536.147933) vcan0 133#0000000098
(1735040536.147936) vcan0 136#000200000000001B
(1735040536.147948) vcan0 13A#0000000000000019
(1735040536.147952) vcan0 13F#000000050000001F
(1735040536.147956) vcan0 039#0039
(1735040536.147962) vcan0 164#0000C01AA8000031
(1735040536.147966) vcan0 17C#0000000010000012
(1735040536.147969) vcan0 18E#00005C
(1735040536.147973) vcan0 183#0000000E0000101C
(1735040536.151328) vcan0 244#000000017C
(1735040536.151864) vcan0 143#6B6B00D1
(1735040536.151879) vcan0 095#800007F400000008
(1735040536.153637) vcan0 166#D0320018
(1735040536.157963) vcan0 158#0000000000000019
(1735040536.158033) vcan0 161#000005500108001C
(1735040536.158048) vcan0 191#010090A1410003
(1735040536.158061) vcan0 164#0000C01AA8000004
(1735040536.158074) vcan0 133#00000000A7
(1735040536.159391) vcan0 136#000200000000002A
(1735040536.160854) vcan0 13A#0000000000000028
(1735040536.160911) vcan0 13F#000000050000002E
(1735040536.160925) vcan0 17C#0000000010000021
(1735040536.160938) vcan0 18E#00006B
(1735040536.160952) vcan0 1CF#80050000003C
(1735040536.160965) vcan0 1DC#02000039
(1735040536.160978) vcan0 320#000030
(1735040536.160992) vcan0 324#7465000000000E38
(1735040536.161005) vcan0 37C#FD00FD00097F0038
(1735040536.161018) vcan0 183#0000000A0000102F
(1735040536.161031) vcan0 143#6B6B00E0
(1735040536.161044) vcan0 095#800007F400000017
(1735040536.161057) vcan0 1A4#0000000800000010
(1735040536.163609) vcan0 1AA#7FFF000000006810
(1735040536.166073) vcan0 1B0#000F0000000157
(1735040536.166081) vcan0 1D0#000000000000000A
(1735040536.166085) vcan0 166#D0320027
(1735040536.166089) vcan0 158#0000000000000028
(1735040536.166093) vcan0 161#000005500108002B
(1735040536.166097) vcan0 039#000C
(1735040536.166102) vcan0 191#010090A1410012
(1735040536.166106) vcan0 133#00000000B6
(1735040536.166109) vcan0 136#0002000000000039
(1735040536.166113) vcan0 13A#0000000000000037
(1735040536.166117) vcan0 13F#000000050000003D
(1735040536.166121) vcan0 164#0000C01AA8000013
(1735040536.169499) vcan0 17C#0000000010000030
(1735040536.169529) vcan0 18E#00007A
