(1735409626.096135) vcan0 095#800007F400000017
(1735409626.096456) vcan0 244#00000001AD
(1735409626.098673) vcan0 039#0039
(1735409626.098680) vcan0 1A4#0000000800000010
(1735409626.098684) vcan0 1AA#7FFF000000006810
(1735409626.098690) vcan0 1B0#000F0000000157
(1735409626.098696) vcan0 1D0#000000000000000A
(1735409626.100067) vcan0 166#D0320027
(1735409626.104229) vcan0 158#0000000000000028
(1735409626.106990) vcan0 161#000005500108002B
(1735409626.106998) vcan0 191#010010A141001A
(1735409626.107003) vcan0 133#00000000B6
(1735409626.110068) vcan0 244#00000001C4
(1735409626.110204) vcan0 136#0002000000000039
(1735409626.110212) vcan0 13A#0000000000000037
(1735409626.110216) vcan0 13F#000000050000003D
(1735409626.110220) vcan0 164#0000C01AA8000013
(1735409626.110225) vcan0 17C#0000000010000030
(1735409626.110229) vcan0 18E#00007A
(1735409626.110233) vcan0 294#040B0002CF5A002C
(1735409626.110236) vcan0 21E#03E8374522062F
(1735409626.110240) vcan0 305#8017
(1735409626.110244) vcan0 183#000000090000103F
(1735409626.110248) vcan0 143#6B6B00FF
(1735409626.110252) vcan0 095#800007F400000026
(1735409626.110257) vcan0 166#D0320036
(1735409626.110262) vcan0 158#0000000000000037
(1735409626.110266) vcan0 161#000005500108003A
(1735409626.110270) vcan0 191#010010A1410029
(1735409626.110274) vcan0 039#000C
(1735409626.110278) vcan0 133#0000000089
(1735409626.110282) vcan0 136#000200000000000C
(1735409626.110287) vcan0 13A#000000000000000A
(1735409626.110291) vcan0 13F#0000000500000000
(1735409626.110295) vcan0 164#0000C01AA8000022
(1735409626.110299) vcan0 17C#0000000010000003
(1735409626.110303) vcan0 18E#00004D
(1735409626.110307) vcan0 1CF#80050000000F
(1735409626.110311) vcan0 1DC#0200000C
(1735409626.110315) vcan0 183#0000000600001005
(1735409626.110319) vcan0 143#6B6B00C2
(1735409626.110323) vcan0 333#0000000000001E
(1735409626.114284) vcan0 095#800007F400000035
(1735409626.116711) vcan0 1A4#000000080000002F
(1735409626.116719) vcan0 1AA#7FFF000000006720
(1735409626.116723) vcan0 1B0#000F0000000166
(1735409626.116727) vcan0 1D0#000000000000000A
(1735409626.116731) vcan0 166#D0320009
(1735409626.116736) vcan0 158#000000000000000A
(1735409626.116740) vcan0 161#000005500108000D
(1735409626.116744) vcan0 191#010010A1410038
(1735409626.116748) vcan0 133#0000000098
(1735409626.116753) vcan0 136#000200000000001B
(1735409626.116757) vcan0 13A#0000000000000019
(1735409626.126490) vcan0 13F#000000050000001F
(1735409626.126969) vcan0 244#00000001C3
(1735409626.128575) vcan0 164#0000C01AA8000031
(1735409626.128581) vcan0 17C#0000000010000012
(1735409626.128586) vcan0 18E#00005C
(1735409626.128599) vcan0 183#0000000C0000101E
(1735409626.128603) vcan0 143#6B6B00D1
(1735409626.128608) vcan0 095#800007F400000008
(1735409626.128611) vcan0 166#D0320018
(1735409626.128615) vcan0 158#0000000000000019
(1735409626.128619) vcan0 161#000005500108001C
(1735409626.128623) vcan0 191#010090A1410003
(1735409626.128627) vcan0 039#001B
(1735409626.128630) vcan0 133#00000000A7
(1735409626.128634) vcan0 136#000200000000002A
(1735409626.128638) vcan0 13A#0000000000000028
(1735409626.128642) vcan0 13F#000000050000002E
(1735409626.128645) vcan0 164#0000C01AA8000004
(1735409626.128649) vcan0 17C#0000000010000021
(1735409626.128653) vcan0 18E#00006B
(1735409626.128656) vcan0 1CF#80050000001E
(1735409626.128660) vcan0 1DC#0200001B
(1735409626.128664) vcan0 320#000012
(1735409626.128668) vcan0 324#7465000000000E1A
(1735409626.128672) vcan0 37C#FD00FD00097F001A
(1735409626.131819) vcan0 183#0000000900001020
(1735409626.132404) vcan0 143#6B6B00E0
(1735409626.132409) vcan0 095#800007F400000017
(1735409626.132413) vcan0 1A4#000000080000003E
(1735409626.133963) vcan0 1AA#7FFF00000000683E
(1735409626.135366) vcan0 1B0#000F0000000175
(1735409626.135372) vcan0 1D0#000000000000000A
(1735409626.135376) vcan0 166#D0320027
(1735409626.137173) vcan0 158#0000000000000028
(1735409626.142108) vcan0 161#000005500108002B
(1735409626.142458) vcan0 244#0000000115
(1735409626.146385) vcan0 191#010090A1410012
(1735409626.146402) vcan0 133#00000000B6
(1735409626.146407) vcan0 136#0002000000000039
(1735409626.146411) vcan0 13A#0000000000000037
(1735409626.146416) vcan0 13F#000000050000003D
(1735409626.146420) vcan0 164#0000C01AA8000013
(1735409626.146425) vcan0 17C#0000000010000030
(1735409626.146429) vcan0 18E#00007A
(1735409626.146434) vcan0 294#040B0002CF5A003B
(1735409626.146438) vcan0 21E#03E8374522063E
(1735409626.146444) vcan0 039#002A
(1735409626.146449) vcan0 183#0000000E0000103A
(1735409626.146453) vcan0 143#6B6B00FF
(1735409626.146457) vcan0 095#800007F400000026
(1735409626.146461) vcan0 166#D0320036
(1735409626.146466) vcan0 158#0000000000000037
(1735409626.146471) vcan0 161#000005500108003A
(1735409626.146475) vcan0 191#010090A1410021
(1735409626.146480) vcan0 133#0000000089
(1735409626.146485) vcan0 136#000200000000000C
(1735409626.148524) vcan0 13A#000000000000000A
(1735409626.152292) vcan0 13F#0000000500000000
(1735409626.152300) vcan0 164#0000C01AA8000022
(1735409626.152304) vcan0 17C#0000000010000003
(1735409626.152308) vcan0 18E#00004D
(1735409626.152312) vcan0 1CF#80050000002D
(1735409626.152315) vcan0 1DC#0200002A
(1735409626.152319) vcan0 183#0000000A00001001
(1735409626.152323) vcan0 143#6B6B00C2
(1735409626.152327) vcan0 095#800007F400000035
(1735409626.152330) vcan0 1A4#0000000800000001
(1735409626.153789) vcan0 244#0000000110
(1735409626.156236) vcan0 1AA#7FFF000000006801
(1735409626.158520) vcan0 1B0#000F0000000148
(1735409626.158528) vcan0 1D0#000000000000000A
(1735409626.158532) vcan0 039#0039
(1735409626.158536) vcan0 166#D0320009
(1735409626.158540) vcan0 158#000000000000000A
(1735409626.158544) vcan0 161#000005500108000D
(1735409626.158548) vcan0 191#010090A1410030
(1735409626.158551) vcan0 133#0000000098
(1735409626.158555) vcan0 136#000200000000001B
(1735409626.158559) vcan0 13A#0000000000000019
(1735409626.158563) vcan0 13F#000000050000001F
(1735409626.158567) vcan0 164#0000C01AA8000031
(1735409626.158571) vcan0 17C#0000000010000012
(1735409626.158574) vcan0 18E#00005C
(1735409626.158578) vcan0 309#00000000000000A2
(1735409626.161154) vcan0 183#0000000F0000101B
(1735409626.162416) vcan0 143#6B6B00D1
(1735409626.162423) vcan0 095#800007F400000008
(1735409626.165048) vcan0 166#D0320018
(1735409626.166677) vcan0 158#0000000000000019
(1735409626.166689) vcan0 161#000005500108001C
(1735409626.166693) vcan0 191#010090A1410003
(1735409626.166697) vcan0 164#0000C01AA8000004
(1735409626.166701) vcan0 133#00000000A7
(1735409626.166705) vcan0 136#000200000000002A
(1735409626.169134) vcan0 244#000000019D
(1735409626.169517) vcan0 13A#0000000000000028
(1735409626.169529) vcan0 13F#000000050000002E
(1735409626.169533) vcan0 17C#0000000010000021
(1735409626.169537) vcan0 18E#00006B
(1735409626.169540) vcan0 039#000C
(1735409626.169544) vcan0 1CF#80050000003C
(1735409626.169548) vcan0 1DC#02000039
(1735409626.169552) vcan0 183#0000000B0000102E
(1735409626.169562) vcan0 143#6B6B00E0
(1735409626.175902) vcan0 095#800007F400000017
(1735409626.175926) vcan0 1A4#0000000800000010
(1735409626.175930) vcan0 1AA#7FFF000000006810
(1735409626.175934) vcan0 1B0#000F0000000157
(1735409626.175938) vcan0 1D0#000000000000000A
(1735409626.175942) vcan0 166#D0320027
(1735409626.175946) vcan0 158#0000000000000028
(1735409626.175950) vcan0 161#000005500108002B
(1735409626.175953) vcan0 191#010090A1410012
(1735409626.180935) vcan0 133#00000000B6
(1735409626.183057) vcan0 136#0002000000000039
(1735409626.183065) vcan0 13A#0000000000000037
(1735409626.183070) vcan0 13F#000000050000003D
(1735409626.183074) vcan0 164#0000C01AA8000013
(1735409626.183079) vcan0 17C#0000000010000030
(1735409626.183084) vcan0 18E#00007A
(1735409626.183089) vcan0 294#040B0002CF5A000E
(1735409626.183093) vcan0 21E#03E83745220601
(1735409626.183097) vcan0 183#0000000800001030
(1735409626.183101) vcan0 143#6B6B00FF
(1735409626.183105) vcan0 039#001B
(1735409626.183110) vcan0 095#800007F400000026
(1735409626.187133) vcan0 166#D0320036
(1735409626.188218) vcan0 244#0000000136
(1735409626.191220) vcan0 158#0000000000000037
(1735409626.193279) vcan0 161#000005500108003A
(1735409626.197096) vcan0 191#010090A1410021
(1735409626.199077) vcan0 133#0000000089
(1735409626.199085) vcan0 136#000200000000000C
(1735409626.199089) vcan0 13A#000000000000000A
(1735409626.199094) vcan0 13F#0000000500000000
(1735409626.199098) vcan0 164#0000C01AA8000022
(1735409626.199102) vcan0 17C#0000000010000003
(1735409626.199107) vcan0 18E#00004D
(1735409626.199111) vcan0 1CF#80050000000F
(1735409626.199116) vcan0 1DC#0200000C
(1735409626.199120) vcan0 183#0000000600001005
(1735409626.199124) vcan0 143#6B6B00C2
(1735409626.199130) vcan0 095#800007F400000035
(1735409626.199135) vcan0 1A4#000000080000002F
(1735409626.199139) vcan0 1AA#7FFF000000006720
(1735409626.199142) vcan0 1B0#000F0000000166
(1735409626.199146) vcan0 1D0#000000000000000A
(1735409626.199150) vcan0 166#D0320009
(1735409626.199153) vcan0 158#000000000000000A
(1735409626.199157) vcan0 161#000005500108000D
(1735409626.199162) vcan0 191#010090A1410030
(1735409626.199165) vcan0 133#0000000098
(1735409626.199169) vcan0 136#000200000000001B
(1735409626.199173) vcan0 039#002A
(1735409626.199176) vcan0 13A#0000000000000019
(1735409626.199180) vcan0 13F#000000050000001F
(1735409626.199184) vcan0 164#0000C01AA8000031
(1735409626.199188) vcan0 17C#0000000010000012
(1735409626.199192) vcan0 18E#00005C
(1735409626.199195) vcan0 183#0000000400001016
(1735409626.201602) vcan0 143#6B6B00D1
(1735409626.201946) vcan0 244#0000000158
(1735409626.204693) vcan0 095#800007F400000008
(1735409626.206387) vcan0 305#8026
(1735409626.208016) vcan0 166#D0320018
(1735409626.208024) vcan0 158#0000000000000019
(1735409626.208028) vcan0 161#000005500108001C
(1735409626.208032) vcan0 191#010090A1410003
(1735409626.208036) vcan0 133#00000000A7
(1735409626.208040) vcan0 136#000200000000002A
(1735409626.208043) vcan0 13A#0000000000000028
(1735409626.208047) vcan0 13F#000000050000002E
(1735409626.208051) vcan0 164#0000C01AA8000004
(1735409626.208054) vcan0 17C#0000000010000021
(1735409626.208058) vcan0 18E#00006B
(1735409626.208062) vcan0 1CF#80050000001E
(1735409626.208065) vcan0 1DC#0200001B
(1735409626.210322) vcan0 183#0000000300001026
(1735409626.213744) vcan0 143#6B6B00E0
(1735409626.213754) vcan0 039#0039
(1735409626.213758) vcan0 333#0000000000002D
(1735409626.213762) vcan0 095#800007F400000017
(1735409626.213765) vcan0 1A4#000000080000003E
(1735409626.213769) vcan0 1AA#7FFF00000000683E
(1735409626.213773) vcan0 1B0#000F0000000175
(1735409626.213777) vcan0 1D0#000000000000000A
(1735409626.214386) vcan0 244#0000000152
(1735409626.216250) vcan0 166#D0320027
(1735409626.220014) vcan0 158#0000000000000028
(1735409626.222324) vcan0 161#000005500108002B
(1735409626.222332) vcan0 191#010090A1410012
(1735409626.222336) vcan0 133#00000000B6
(1735409626.222340) vcan0 136#0002000000000039
(1735409626.222345) vcan0 13A#0000000000000037
(1735409626.222349) vcan0 13F#000000050000003D
(1735409626.222353) vcan0 164#0000C01AA8000013
(1735409626.222357) vcan0 17C#0000000010000030
(1735409626.222361) vcan0 18E#00007A
(1735409626.222365) vcan0 294#040B0002CF5A001D
(1735409626.222369) vcan0 21E#03E83745220610
(1735409626.222373) vcan0 183#0000000A0000103E
(1735409626.222385) vcan0 143#6B6B00FF
(1735409626.222389) vcan0 095#800007F400000026
(1735409626.225296) vcan0 166#D0320036
(1735409626.226940) vcan0 158#0000000000000037
(1735409626.229200) vcan0 161#000005500108003A
(1735409626.229211) vcan0 191#010090A1410021
(1735409626.229215) vcan0 133#0000000089
(1735409626.229219) vcan0 136#000200000000000C
(1735409626.229223) vcan0 13A#000000000000000A
(1735409626.229227) vcan0 13F#0000000500000000
(1735409626.229231) vcan0 164#0000C01AA8000022
(1735409626.229235) vcan0 17C#0000000010000003
(1735409626.229239) vcan0 18E#00004D
(1735409626.229244) vcan0 1CF#80050000002D
(1735409626.229248) vcan0 1DC#0200002A
(1735409626.229251) vcan0 320#000021
(1735409626.229255) vcan0 324#7465000000000E29
(1735409626.229259) vcan0 37C#FD00FD00097F0029
(1735409626.229263) vcan0 40C#014A484D46413325
(1735409626.229268) vcan0 183#0000000700001004
(1735409626.229272) vcan0 454#23EF27
(1735409626.229934) vcan0 244#00000001B9
(1735409626.232708) vcan0 143#6B6B00C2
(1735409626.232724) vcan0 095#800007F400000035
(1735409626.232727) vcan0 039#000C
(1735409626.232731) vcan0 1A4#0000000800000001
(1735409626.232735) vcan0 1AA#7FFF000000006801
(1735409626.235243) vcan0 1B0#000F0000000148
(1735409626.237977) vcan0 1D0#000000000000000A
(1735409626.240280) vcan0 166#D0320009
(1735409626.240289) vcan0 158#000000000000000A
(1735409626.240293) vcan0 161#000005500108000D
(1735409626.240297) vcan0 191#010090A1410030
(1735409626.240301) vcan0 133#0000000098
(1735409626.240305) vcan0 136#000200000000001B
(1735409626.240309) vcan0 13A#0000000000000019
(1735409626.240313) vcan0 13F#000000050000001F
(1735409626.240317) vcan0 164#0000C01AA8000031
(1735409626.240321) vcan0 17C#0000000010000012
(1735409626.240325) vcan0 18E#00005C
(1735409626.240328) vcan0 183#0000000D0000101D
(1735409626.240332) vcan0 143#6B6B00D1
(1735409626.243083) vcan0 095#800007F400000008
(1735409626.245047) vcan0 166#D0320018
(1735409626.247395) vcan0 244#00000001BC
(1735409626.248412) vcan0 158#0000000000000019
(1735409626.248464) vcan0 161#000005500108001C
(1735409626.248468) vcan0 191#010090A1410003
(1735409626.248472) vcan0 133#00000000A7
(1735409626.248476) vcan0 136#000200000000002A
(1735409626.248481) vcan0 13A#0000000000000028
(1735409626.248485) vcan0 13F#000000050000002E
(1735409626.248489) vcan0 164#0000C01AA8000004
(1735409626.248493) vcan0 17C#0000000010000021
(1735409626.248496) vcan0 18E#00006B
(1735409626.248500) vcan0 1CF#80050000003C
(1735409626.248504) vcan0 1DC#02000039
(1735409626.251145) vcan0 183#0000001100001027
(1735409626.252598) vcan0 143#6B6B00E0
(1735409626.252605) vcan0 039#001B
(1735409626.252609) vcan0 095#800007F400000017
(1735409626.252613) vcan0 1A4#0000000800000010
(1735409626.252617) vcan0 1AA#7FFF000000006810
(1735409626.255190) vcan0 1B0#000F0000000157
(1735409626.257766) vcan0 1D0#000000000000000A
(1735409626.259607) vcan0 166#D0320027
(1735409626.262013) vcan0 158#0000000000000028
(1735409626.262988) vcan0 244#00000001EC
(1735409626.265422) vcan0 161#000005500108002B
(1735409626.266734) vcan0 191#010090A1410012
(1735409626.266740) vcan0 133#00000000B6
(1735409626.266744) vcan0 136#0002000000000039
(1735409626.266748) vcan0 13A#0000000000000037
(1735409626.266751) vcan0 13F#000000050000003D
(1735409626.266755) vcan0 164#0000C01AA8000013
(1735409626.266759) vcan0 17C#0000000010000030
(1735409626.266763) vcan0 18E#00007A
(1735409626.266766) vcan0 294#040B0002CF5A002C
(1735409626.266770) vcan0 21E#03E8374522062F
(1735409626.266774) vcan0 309#00000000000000B1
(1735409626.266777) vcan0 428#01040000521C3E
(1735409626.266782) vcan0 405#0000040000000038
(1735409626.266786) vcan0 183#0000000C0000103C
(1735409626.266790) vcan0 143#6B6B00FF
(1735409626.266794) vcan0 095#800007F400000026
(1735409626.266797) vcan0 166#D0320036
(1735409626.266801) vcan0 039#002A
(1735409626.266806) vcan0 158#0000000000000037
(1735409626.266810) vcan0 161#000005500108003A
(1735409626.266813) vcan0 191#010090A1410021
(1735409626.266817) vcan0 133#0000000089
(1735409626.266820) vcan0 136#000200000000000C
(1735409626.266824) vcan0 13A#000000000000000A
(1735409626.272640) vcan0 13F#0000000500000000
(1735409626.272699) vcan0 164#0000C01AA8000022
(1735409626.272706) vcan0 17C#0000000010000003
(1735409626.272713) vcan0 18E#00004D
(1735409626.272718) vcan0 1CF#80050000000F
(1735409626.272740) vcan0 1DC#0200000C
(1735409626.272744) vcan0 183#000000100000100A
(1735409626.272749) vcan0 143#6B6B00C2
(1735409626.275933) vcan0 095#800007F400000035
(1735409626.278235) vcan0 1A4#000000080000002F
(1735409626.278241) vcan0 1AA#7FFF000000006720
(1735409626.278245) vcan0 1B0#000F0000000166
(1735409626.278249) vcan0 1D0#000000000000000A
(1735409626.278253) vcan0 166#D0320009
(1735409626.278257) vcan0 158#000000000000000A
(1735409626.278261) vcan0 161#000005500108000D
(1735409626.278265) vcan0 191#010090A1410030
(1735409626.278269) vcan0 133#0000000098
(1735409626.278273) vcan0 136#000200000000001B
(1735409626.278278) vcan0 13A#0000000000000019
(1735409626.278282) vcan0 13F#000000050000001F
(1735409626.278288) vcan0 164#0000C01AA9000030
(1735409626.278292) vcan0 17C#0000000010000012
(1735409626.278296) vcan0 18E#00005C
(1735409626.282868) vcan0 039#0039
(1735409626.282992) vcan0 244#00000001AE
(1735409626.287295) vcan0 183#0000000C0000101E
(1735409626.291112) vcan0 143#6B6B00D1
(1735409626.291123) vcan0 095#800007F400000008
(1735409626.291127) vcan0 166#D0320018
(1735409626.291131) vcan0 158#0000000000000019
(1735409626.291135) vcan0 161#000005500108001C
(1735409626.291139) vcan0 191#010090A1410003
(1735409626.291143) vcan0 133#00000000A7
(1735409626.291146) vcan0 136#000200000000002A
(1735409626.291150) vcan0 13A#0000000000000028
(1735409626.291154) vcan0 13F#000000050000002E
(1735409626.291157) vcan0 164#0000C01AA8000004
(1735409626.291161) vcan0 17C#0000000010000021
(1735409626.291167) vcan0 18E#00006B
(1735409626.291170) vcan0 1CF#80050000001E
(1735409626.291174) vcan0 1DC#0200001B
(1735409626.291177) vcan0 183#0000001000001028
(1735409626.291181) vcan0 143#6B6B00E0
(1735409626.294938) vcan0 095#800007F400000017
(1735409626.296697) vcan0 1A4#000000080000003E
(1735409626.296703) vcan0 1AA#7FFF00000000683E
(1735409626.296707) vcan0 1B0#000F0000000175
(1735409626.296711) vcan0 1D0#000000000000000A
(1735409626.296715) vcan0 039#000C
(1735409626.296719) vcan0 166#D0320027
(1735409626.296722) vcan0 158#0000000000000028
(1735409626.296726) vcan0 161#000005500108002B
(1735409626.296730) vcan0 191#010090A1410012
(1735409626.296733) vcan0 133#00000000B6
(1735409626.296737) vcan0 136#0002000000000039
(1735409626.296742) vcan0 13A#0000000000000037
(1735409626.298944) vcan0 13F#000000050000003D
(1735409626.299334) vcan0 244#000000011B
(1735409626.300946) vcan0 164#0000C01AA8000013
(1735409626.304094) vcan0 17C#0000000010000030
(1735409626.306481) vcan0 18E#00007A
(1735409626.306488) vcan0 294#040B0002CF5A003B
(1735409626.306492) vcan0 21E#03E8374522063E
(1735409626.306497) vcan0 183#0000001300001034
(1735409626.306501) vcan0 143#6B6B00FF
(1735409626.306505) vcan0 095#800007F800000022
(1735409626.306509) vcan0 166#D0320036
(1735409626.306515) vcan0 158#0000000000000037
(1735409626.306519) vcan0 161#000005500108003A
(1735409626.306524) vcan0 191#010090A1410021
(1735409626.306529) vcan0 133#0000000089
(1735409626.306533) vcan0 136#000200000000000C
(1735409626.309393) vcan0 13A#000000000000000A
(1735409626.312487) vcan0 13F#0000000500000000
(1735409626.312494) vcan0 164#0000C01AA8000022
(1735409626.312498) vcan0 17C#0000000010000003
(1735409626.312502) vcan0 18E#00004D
(1735409626.312506) vcan0 1CF#80050000002D
(1735409626.312509) vcan0 1DC#0200002A
(1735409626.312513) vcan0 305#8035
(1735409626.312517) vcan0 183#0000000E0000100D
(1735409626.312521) vcan0 143#6B6B00C2
(1735409626.312526) vcan0 333#0000000000003C
(1735409626.312531) vcan0 095#800007F800000031
(1735409626.312534) vcan0 1A4#0000000800000001
(1735409626.312538) vcan0 1AA#7FFF000000006801
(1735409626.314998) vcan0 1B0#000F0000000148
(1735409626.317012) vcan0 1D0#000000000000000A
(1735409626.317017) vcan0 039#001B
(1735409626.317021) vcan0 166#D0320009
(1735409626.317025) vcan0 158#000000000000000A
(1735409626.317029) vcan0 161#000005500108000D
(1735409626.317033) vcan0 191#010090A1410030
(1735409626.317038) vcan0 133#0000000098
(1735409626.317041) vcan0 136#000200000000001B
(1735409626.317045) vcan0 13A#0000000000000019
(1735409626.317049) vcan0 13F#000000050000001F
(1735409626.317808) vcan0 244#0000000172
(1735409626.319465) vcan0 164#0000C01AA8000031
(1735409626.319477) vcan0 17C#0000000010000012
(1735409626.319481) vcan0 18E#00005C
(1735409626.319493) vcan0 183#0000000A00001010
(1735409626.322051) vcan0 143#6B6B00D1
(1735409626.323358) vcan0 095#800007F800000004
(1735409626.326507) vcan0 166#D0320018
(1735409626.328785) vcan0 158#0000000000000019
(1735409626.328792) vcan0 161#000005500108001C
(1735409626.328796) vcan0 191#010090A1410003
(1735409626.328800) vcan0 133#00000000A7
(1735409626.328804) vcan0 136#000200000000002A
(1735409626.328808) vcan0 13A#0000000000000028
(1735409626.328811) vcan0 13F#000000050000002E
(1735409626.328815) vcan0 164#0000C01AA8000004
(1735409626.328819) vcan0 039#002A
(1735409626.328823) vcan0 17C#0000000010000021
(1735409626.328828) vcan0 18E#00006B
(1735409626.328832) vcan0 1CF#80050000003C
(1735409626.328836) vcan0 1DC#02000039
(1735409626.328839) vcan0 320#000030
(1735409626.328843) vcan0 324#7465000000000E38
(1735409626.328847) vcan0 37C#FD00FD00097F0038
(1735409626.330836) vcan0 244#000000014F
(1735409626.333521) vcan0 183#0000000700001022
(1735409626.334891) vcan0 143#6B6B00E0
(1735409626.334897) vcan0 095#800007F800000013
(1735409626.334901) vcan0 1A4#0000000800000010
(1735409626.334905) vcan0 1AA#7FFF000000006810
(1735409626.334909) vcan0 1B0#000F0000000157
(1735409626.334913) vcan0 1D0#000000000000000A
(1735409626.334916) vcan0 166#D0320027
(1735409626.338998) vcan0 158#0000000000000028
(1735409626.339025) vcan0 161#000005500108002B
(1735409626.339029) vcan0 191#010090A1410012
(1735409626.339033) vcan0 133#00000000B6
(1735409626.339038) vcan0 136#0002000000000039
(1735409626.339042) vcan0 13A#0000000000000037
(1735409626.339046) vcan0 13F#000000050000003D
(1735409626.339052) vcan0 164#0000C01AA8000013
(1735409626.339116) vcan0 17C#0000000010000030
(1735409626.339126) vcan0 18E#00007A
(1735409626.339130) vcan0 294#040B0002CF5A000E
(1735409626.339135) vcan0 21E#03E83745220601
(1735409626.341981) vcan0 183#0000000500001033
(1735409626.344132) vcan0 143#6B6B00FF
(1735409626.344139) vcan0 039#0039
(1735409626.344143) vcan0 095#800007F800000022
(1735409626.346278) vcan0 244#00000001FF
(1735409626.348059) vcan0 166#D0320036
(1735409626.348078) vcan0 158#0000000000000037
(1735409626.348082) vcan0 161#000005500108003A
(1735409626.348085) vcan0 191#010090A1410021
(1735409626.348090) vcan0 164#0000C01AA8000022
(1735409626.348095) vcan0 133#0000000089
(1735409626.348099) vcan0 136#000200000000000C
(1735409626.348103) vcan0 13A#000000000000000A
(1735409626.348107) vcan0 13F#0000000500000000
(1735409626.348110) vcan0 17C#0000000010000003
(1735409626.348114) vcan0 18E#00004D
(1735409626.348118) vcan0 1CF#80050000000F
(1735409626.348122) vcan0 1DC#0200000C
(1735409626.351056) vcan0 183#0000000B00001000
(1735409626.352903) vcan0 143#6B6B00C2
(1735409626.352909) vcan0 095#800007F800000031
(1735409626.352913) vcan0 1A4#000000080000002F
(1735409626.352916) vcan0 1AA#7FFF000000006720
(1735409626.352921) vcan0 1B0#000F0000000166
(1735409626.352925) vcan0 1D0#000000000000000A
(1735409626.357692) vcan0 166#D0320009
(1735409626.358887) vcan0 158#000000000000000A
(1735409626.358902) vcan0 161#000005500108000D
(1735409626.358906) vcan0 191#010090A1410030
(1735409626.358910) vcan0 039#000C
(1735409626.358914) vcan0 133#0000000098
(1735409626.358919) vcan0 136#000200000000001B
(1735409626.358923) vcan0 13A#0000000000000019
(1735409626.358927) vcan0 13F#000000050000001F
(1735409626.358931) vcan0 164#0000C01AA8000031
(1735409626.358935) vcan0 17C#0000000010000012
(1735409626.358938) vcan0 18E#00005C
(1735409626.358944) vcan0 309#0000000000000084
(1735409626.361218) vcan0 183#0000000800001012
(1735409626.363021) vcan0 143#6B6B00D1
(1735409626.363027) vcan0 095#800007F800000004
(1735409626.364250) vcan0 244#000000015F
(1735409626.365552) vcan0 166#D0320018
(1735409626.365565) vcan0 158#0000000000000019
(1735409626.368385) vcan0 161#000005500108001C
(1735409626.373826) vcan0 191#010090A1410003
(1735409626.376110) vcan0 133#00000000A7
(1735409626.378549) vcan0 136#000200000000002A
(1735409626.378565) vcan0 13A#0000000000000028
(1735409626.378569) vcan0 13F#000000050000002E
(1735409626.378574) vcan0 164#0000C01AA8000004
(1735409626.378581) vcan0 17C#0000000010000021
(1735409626.378587) vcan0 18E#00006B
(1735409626.378591) vcan0 1CF#80050000001E
(1735409626.378596) vcan0 1DC#0200001B
(1735409626.378600) vcan0 183#0000000D0000102C
(1735409626.378605) vcan0 143#6B6B00E0
(1735409626.378621) vcan0 039#001B
(1735409626.378626) vcan0 095#800007F800000013
(1735409626.378632) vcan0 1A4#000000080000003E
(1735409626.378636) vcan0 1AA#7FFF00000000683E
(1735409626.378641) vcan0 1B0#000F0000000175
(1735409626.378645) vcan0 1D0#000000000000000A
(1735409626.378649) vcan0 166#D0320027
(1735409626.378655) vcan0 158#0000000000000028
(1735409626.378659) vcan0 161#000005500108002B
(1735409626.378664) vcan0 191#010090A1410012
(1735409626.378668) vcan0 133#00000000B6
(1735409626.378672) vcan0 136#0002000000000039
(1735409626.378676) vcan0 13A#0000000000000037
(1735409626.379859) vcan0 13F#000000050000003D
(1735409626.379885) vcan0 164#0000C01AA8000013
(1735409626.379890) vcan0 17C#0000000010000030
(1735409626.379896) vcan0 18E#00007A
(1735409626.379909) vcan0 294#040B0002CF5A001D
(1735409626.379913) vcan0 21E#03E83745220610
(1735409626.379918) vcan0 183#000000090000103F
(1735409626.379922) vcan0 143#6B6B00FF
(1735409626.381699) vcan0 244#000000018A
(1735409626.382541) vcan0 095#800007F800000022
(1735409626.384812) vcan0 166#D0320036
(1735409626.386834) vcan0 039#002A
(1735409626.386845) vcan0 158#0000000000000037
(1735409626.386849) vcan0 161#000005500108003A
(1735409626.386853) vcan0 191#010090A1410021
(1735409626.386858) vcan0 164#0000C01AA8000022
(1735409626.386862) vcan0 133#0000000089
(1735409626.386866) vcan0 136#000200000000000C
(1735409626.386870) vcan0 13A#000000000000000A
(1735409626.389326) vcan0 13F#0000000500000000
(1735409626.390704) vcan0 17C#0000000010000003
(1735409626.390710) vcan0 18E#00004D
(1735409626.390714) vcan0 1CF#80050000002D
(1735409626.390718) vcan0 1DC#0200002A
(1735409626.390722) vcan0 183#0000000600001005
(1735409626.390726) vcan0 143#6B6B00C2
(1735409626.393193) vcan0 095#800007F800000031
(1735409626.393349) vcan0 244#0000000145
(1735409626.394079) vcan0 1A4#0000000800000001
(1735409626.394086) vcan0 1AA#7FFF000000006801
(1735409626.394090) vcan0 1B0#000F0000000148
(1735409626.394095) vcan0 1D0#000000000000000A
(1735409626.400520) vcan0 166#D0320009
(1735409626.402496) vcan0 158#000000000000000A
(1735409626.402503) vcan0 161#000005500108000D
(1735409626.402508) vcan0 191#010090A1410030
(1735409626.402512) vcan0 133#0000000098
(1735409626.402516) vcan0 136#000200000000001B
(1735409626.402520) vcan0 13A#0000000000000019
(1735409626.402524) vcan0 13F#000000050000001F
(1735409626.402529) vcan0 164#0000C01AA8000031
(1735409626.402534) vcan0 17C#0000000010000012
(1735409626.402538) vcan0 18E#00005C
(1735409626.402542) vcan0 183#0000000C0000101E
(1735409626.402546) vcan0 143#6B6B00D1
(1735409626.402550) vcan0 039#0039
(1735409626.402554) vcan0 095#800007F800000004
(1735409626.404269) vcan0 166#D0320018
(1735409626.407779) vcan0 158#0000000000000019
(1735409626.409430) vcan0 161#000005500108001C
(1735409626.409438) vcan0 191#010090A1410003
(1735409626.409442) vcan0 133#00000000A7
(1735409626.409446) vcan0 136#000200000000002A
(1735409626.409450) vcan0 13A#0000000000000028
(1735409626.410511) vcan0 13F#000000050000002E
(1735409626.412177) vcan0 244#00000001BF
(1735409626.414868) vcan0 164#0000C01AA8000004
(1735409626.414882) vcan0 17C#0000000010000021
(1735409626.414886) vcan0 18E#00006B
(1735409626.414890) vcan0 1CF#80050000003C
(1735409626.414895) vcan0 1DC#02000039
(1735409626.414899) vcan0 183#0000000900001020
(1735409626.414903) vcan0 143#6B6B00E0
(1735409626.414907) vcan0 333#0000000000000F
(1735409626.414912) vcan0 095#800007F800000013
(1735409626.414916) vcan0 1A4#0000000800000010
(1735409626.414920) vcan0 1AA#7FFF000000006711
(1735409626.414924) vcan0 1B0#000F0000000157
(1735409626.414928) vcan0 1D0#000000000000000A
(1735409626.414932) vcan0 305#8008
(1735409626.414936) vcan0 166#D0320027
(1735409626.417967) vcan0 158#0000000000000028
(1735409626.419930) vcan0 161#000005500108002B
(1735409626.419937) vcan0 191#010090A1410012
(1735409626.419941) vcan0 133#00000000B6
(1735409626.419944) vcan0 136#0002000000000039
(1735409626.419948) vcan0 13A#0000000000000037
(1735409626.419952) vcan0 13F#000000050000003D
(1735409626.419956) vcan0 164#0000C01AA8000013
(1735409626.419959) vcan0 17C#0000000010000030
(1735409626.419963) vcan0 18E#00007A
(1735409626.419967) vcan0 294#040B0002CF5A002C
(1735409626.419970) vcan0 21E#03E8374522062F
(1735409626.419974) vcan0 183#0000000E0000103A
(1735409626.419977) vcan0 143#6B6B00FF
(1735409626.419989) vcan0 039#000C
(1735409626.422448) vcan0 095#800007F800000022
(1735409626.425175) vcan0 166#D0320036
(1735409626.427067) vcan0 158#0000000000000037
(1735409626.429729) vcan0 161#000005500108003A
(1735409626.429737) vcan0 191#010010A1410029
(1735409626.429741) vcan0 133#0000000089
(1735409626.429745) vcan0 136#000200000000000C
(1735409626.429748) vcan0 13A#000000000000000A
(1735409626.429752) vcan0 13F#0000000500000000
(1735409626.429756) vcan0 164#0000C01AA8000022
(1735409626.429748) vcan0 244#00000001D1
(1735409626.429760) vcan0 17C#0000000010000003
(1735409626.429766) vcan0 18E#00004D
(1735409626.429770) vcan0 1CF#80050000000F
(1735409626.429773) vcan0 1DC#0200000C
(1735409626.429777) vcan0 320#000003
(1735409626.429781) vcan0 324#7465000000000E0B
(1735409626.429785) vcan0 37C#FD00FD00097F000B
(1735409626.429790) vcan0 183#0000001200001008
(1735409626.429794) vcan0 143#6B6B00C2
(1735409626.433913) vcan0 095#800007F800000031
(1735409626.433935) vcan0 1A4#000000080000002F
(1735409626.433941) vcan0 039#001B
(1735409626.433946) vcan0 1AA#7FFF000000006720
(1735409626.433950) vcan0 1B0#000F0000000166
(1735409626.433954) vcan0 1D0#000000000000000A
(1735409626.436993) vcan0 166#D0320009
(1735409626.439489) vcan0 158#000000000000000A
(1735409626.439498) vcan0 161#000005500108000D
(1735409626.439502) vcan0 191#010010A1410038
(1735409626.439507) vcan0 133#0000000098
(1735409626.439511) vcan0 136#000200000000001B
(1735409626.439517) vcan0 13A#0000000000000019
(1735409626.439521) vcan0 13F#000000050000001F
(1735409626.439526) vcan0 164#0000C01AA8000031
(1735409626.439531) vcan0 17C#0000000010000012
(1735409626.439536) vcan0 18E#00005C
(1735409626.439541) vcan0 183#0000000D0000101D
(1735409626.439545) vcan0 143#6B6B00D1
(1735409626.444185) vcan0 095#800007F800000004
(1735409626.445175) vcan0 244#0000000172
(1735409626.447049) vcan0 166#D0320018
(1735409626.448506) vcan0 158#0000000000000019
(1735409626.448512) vcan0 161#000005500108001C
(1735409626.448516) vcan0 191#010010A141000B
(1735409626.448520) vcan0 164#0000C01AA8000004
(1735409626.448524) vcan0 133#00000000A7
(1735409626.448530) vcan0 136#000200000000002A
(1735409626.448534) vcan0 13A#0000000000000028
(1735409626.448538) vcan0 13F#000000050000002E
(1735409626.448542) vcan0 039#002A
(1735409626.448547) vcan0 17C#0000000010000021
(1735409626.449330) vcan0 18E#00006B
(1735409626.449335) vcan0 1CF#80050000001E
(1735409626.449339) vcan0 1DC#0200001B
(1735409626.449343) vcan0 183#0000000900001020
(1735409626.453389) vcan0 143#6B6B00E0
(1735409626.455082) vcan0 095#800007F400000017
(1735409626.455088) vcan0 1A4#000000080000003E
(1735409626.455092) vcan0 1AA#7FFF00000000683E
(1735409626.455096) vcan0 1B0#000F0000000175
(1735409626.455101) vcan0 1D0#000000000000000A
(1735409626.455105) vcan0 166#D0320027
(1735409626.458134) vcan0 158#0000000000000028
(1735409626.460213) vcan0 161#000005500108002B
(1735409626.460219) vcan0 191#010010A141001A
(1735409626.460223) vcan0 133#00000000B6
(1735409626.460228) vcan0 136#0002000000000039
(1735409626.460232) vcan0 13A#0000000000000037
(1735409626.460236) vcan0 13F#000000050000003D
(1735409626.460240) vcan0 164#0000C01AA8000013
(1735409626.460244) vcan0 17C#0000000010000030
(1735409626.460248) vcan0 18E#00007A
(1735409626.460253) vcan0 294#040B0002CF5A003B
(1735409626.460257) vcan0 21E#03E8374522063E
(1735409626.460261) vcan0 309#0000000000000093
(1735409626.460265) vcan0 183#0000000600001032
(1735409626.460269) vcan0 143#6B6B00FF
(1735409626.461753) vcan0 244#0000000175
(1735409626.462829) vcan0 039#0039
(1735409626.464763) vcan0 095#800007F400000026
(1735409626.464769) vcan0 166#D0320036
(1735409626.469321) vcan0 158#0000000000000037
(1735409626.469345) vcan0 161#000005500108003A
(1735409626.469349) vcan0 191#010010A1410029
(1735409626.469353) vcan0 133#0000000089
(1735409626.469357) vcan0 136#000200000000000C
(1735409626.469361) vcan0 13A#000000000000000A
(1735409626.469365) vcan0 13F#0000000500000000
(1735409626.469369) vcan0 164#0000C01AA8000022
(1735409626.469373) vcan0 17C#0000000010000003
(1735409626.469377) vcan0 18E#00004D
(1735409626.469381) vcan0 1CF#80050000002D
(1735409626.469385) vcan0 1DC#0200002A
(1735409626.469388) vcan0 183#0000000C0000100F
(1735409626.471025) vcan0 143#6B6B00C2
(1735409626.473872) vcan0 095#800007F400000035
(1735409626.473900) vcan0 1A4#0000000800000001
(1735409626.473904) vcan0 1AA#7FFF000000006801
(1735409626.473908) vcan0 1B0#000F0000000148
(1735409626.473913) vcan0 1D0#000000000000000A
(1735409626.476272) vcan0 166#D0320009
(1735409626.477910) vcan0 039#000C
(1735409626.478743) vcan0 244#0000000169
(1735409626.479514) vcan0 158#000000000000000A
(1735409626.479519) vcan0 161#000005500108000D
(1735409626.479523) vcan0 191#010010A1410038
(1735409626.479527) vcan0 133#0000000098
(1735409626.479532) vcan0 136#000200000000001B
(1735409626.479537) vcan0 13A#0000000000000019
(1735409626.479540) vcan0 13F#000000050000001F
(1735409626.479544) vcan0 164#0000C01AA8000031
(1735409626.479548) vcan0 17C#0000000010000012
(1735409626.479552) vcan0 18E#00005C
(1735409626.479556) vcan0 183#0000001000001019
(1735409626.479560) vcan0 143#6B6B00D1
(1735409626.481868) vcan0 095#800007F400000008
(1735409626.484938) vcan0 166#D0320018
(1735409626.488244) vcan0 158#0000000000000019
(1735409626.488337) vcan0 161#000005500108001C
(1735409626.488342) vcan0 191#010010A141000B
(1735409626.488346) vcan0 133#00000000A7
(1735409626.488351) vcan0 136#000200000000002A
(1735409626.488355) vcan0 13A#0000000000000028
(1735409626.488359) vcan0 13F#000000050000002E
(1735409626.488363) vcan0 164#0000C01AA8000004
(1735409626.488368) vcan0 17C#0000000010000021
(1735409626.488372) vcan0 18E#00006B
(1735409626.488375) vcan0 1CF#80050000003C
(1735409626.488379) vcan0 1DC#02000039
(1735409626.489667) vcan0 183#0000000C0000102D
(1735409626.489746) vcan0 143#6B6B00E0
(1735409626.489880) vcan0 244#00000001C8
(1735409626.492193) vcan0 039#001B
(1735409626.492982) vcan0 095#800007F400000017
(1735409626.492989) vcan0 1A4#0000000800000010
(1735409626.492993) vcan0 1AA#7FFF000000006711
(1735409626.492997) vcan0 1B0#000F0000000157
(1735409626.493001) vcan0 1D0#000000000000000A
(1735409626.495202) vcan0 166#D0320027
(1735409626.500923) vcan0 158#0000000000000028
(1735409626.500932) vcan0 161#000005500108002B
(1735409626.500937) vcan0 191#010010A141001A
(1735409626.500941) vcan0 133#00000000B6
(1735409626.500945) vcan0 136#0002000000000039
(1735409626.500949) vcan0 13A#0000000000000037
(1735409626.500953) vcan0 13F#000000050000003D
(1735409626.500957) vcan0 164#0000C01AA8000013
(1735409626.500961) vcan0 17C#0000000010000030
(1735409626.500965) vcan0 18E#00007A
(1735409626.500968) vcan0 294#040B0002CF5A000E
(1735409626.500972) vcan0 21E#03E83745220601
(1735409626.500976) vcan0 183#0000001000001037
(1735409626.500980) vcan0 143#6B6B00FF
(1735409626.503264) vcan0 244#0000000124
(1735409626.506244) vcan0 095#800007F400000026
(1735409626.507811) vcan0 039#002A
(1735409626.511138) vcan0 166#D0320036
(1735409626.511146) vcan0 158#0000000000000037
(1735409626.511150) vcan0 161#000005500108003A
(1735409626.511154) vcan0 191#010010A1410029
(1735409626.511158) vcan0 133#0000000089
(1735409626.511162) vcan0 136#000200000000000C
(1735409626.511166) vcan0 13A#000000000000000A
(1735409626.511170) vcan0 13F#0000000500000000
(1735409626.511175) vcan0 164#0000C01AA8000022
(1735409626.511179) vcan0 17C#0000000010000003
(1735409626.512255) vcan0 18E#00004D
(1735409626.512268) vcan0 1CF#80050000000F
(1735409626.512273) vcan0 1DC#0200000C
(1735409626.512277) vcan0 183#0000000C0000100F
(1735409626.512281) vcan0 143#6B6B00C2
(1735409626.512285) vcan0 333#0000000000001E
(1735409626.512289) vcan0 095#800007F400000035
(1735409626.512293) vcan0 1A4#000000080000002F
(1735409626.516526) vcan0 1AA#7FFF000000006720
(1735409626.516539) vcan0 1B0#000F0000000166
(1735409626.516543) vcan0 1D0#000000000000000A
(1735409626.516547) vcan0 166#D0320009
(1735409626.516552) vcan0 305#8017
(1735409626.516557) vcan0 158#000000000000000A
(1735409626.516561) vcan0 161#000005500108000D
(1735409626.516565) vcan0 191#010010A1410038
(1735409626.516571) vcan0 133#0000000098
(1735409626.516576) vcan0 136#000200000000001B
(1735409626.518290) vcan0 244#000000010C
(1735409626.518302) vcan0 188#00000000
(1735409626.519250) vcan0 13A#0000000000000019
(1735409626.519263) vcan0 13F#000000050000001F
(1735409626.519267) vcan0 164#0000C01AA8000031
(1735409626.519271) vcan0 17C#0000000010000012
(1735409626.519275) vcan0 18E#00005C
(1735409626.522461) vcan0 183#0000000900001011
(1735409626.527390) vcan0 143#6B6B00D1
(1735409626.530703) vcan0 095#800007F400000008
(1735409626.530711) vcan0 039#0039
(1735409626.530715) vcan0 166#D0320018
(1735409626.530725) vcan0 158#0000000000000019
(1735409626.530729) vcan0 161#000005500108001C
(1735409626.530733) vcan0 191#010010A141000B
(1735409626.530736) vcan0 133#00000000A7
(1735409626.530740) vcan0 136#000200000000002A
(1735409626.530745) vcan0 13A#0000000000000028
(1735409626.530748) vcan0 13F#000000050000002E
(1735409626.530752) vcan0 164#0000C01AA8000004
(1735409626.530757) vcan0 17C#0000000010000021
(1735409626.530761) vcan0 18E#00006B
(1735409626.530764) vcan0 1CF#80050000001E
(1735409626.530768) vcan0 1DC#0200001B
(1735409626.530771) vcan0 320#000012
(1735409626.530775) vcan0 324#7465000000000E1A
(1735409626.530779) vcan0 37C#FD00FD00097F001A
(1735409626.530782) vcan0 40C#0236323239533039
(1735409626.530786) vcan0 183#0000000E0000102B
(1735409626.530789) vcan0 454#23EF36
(1735409626.530793) vcan0 143#6B6B00E0
(1735409626.535143) vcan0 095#800007F400000017
(1735409626.535162) vcan0 1A4#000000080000003E
(1735409626.535167) vcan0 1AA#7FFF00000000683E
(1735409626.535170) vcan0 1B0#000F0000000175
(1735409626.535174) vcan0 1D0#000000000000000A
(1735409626.535178) vcan0 166#D0320027
(1735409626.538196) vcan0 158#0000000000000028
(1735409626.538216) vcan0 039#000C
(1735409626.538220) vcan0 161#000005500108002B
(1735409626.538224) vcan0 191#010010A141001A
(1735409626.538228) vcan0 133#00000000B6
(1735409626.538232) vcan0 136#0002000000000039
(1735409626.538236) vcan0 13A#0000000000000037
(1735409626.538240) vcan0 13F#000000050000003D
(1735409626.538244) vcan0 164#0000C01AA8000013
(1735409626.538248) vcan0 17C#0000000010000030
(1735409626.538252) vcan0 18E#00007A
(1735409626.538256) vcan0 294#040B0002CF5A001D
(1735409626.538260) vcan0 21E#03E83745220610
(1735409626.541557) vcan0 244#0000000130
(1735409626.541780) vcan0 183#0000000A0000103E
(1735409626.541796) vcan0 143#6B6B00FF
(1735409626.541800) vcan0 095#800007F400000026
(1735409626.544733) vcan0 166#D0320036
(1735409626.547637) vcan0 158#0000000000000037
(1735409626.547654) vcan0 161#000005500108003A
(1735409626.547658) vcan0 191#010010A1410029
(1735409626.547662) vcan0 133#0000000089
(1735409626.547666) vcan0 136#000200000000000C
(1735409626.547670) vcan0 13A#000000000000000A
(1735409626.547674) vcan0 13F#0000000500000000
(1735409626.547679) vcan0 164#0000C01AA8000022
(1735409626.547683) vcan0 17C#0000000010000003
(1735409626.547686) vcan0 18E#00004D
(1735409626.547690) vcan0 1CF#80050000002D
(1735409626.551789) vcan0 1DC#0200002A
(1735409626.551807) vcan0 183#0000000700001004
(1735409626.551812) vcan0 143#6B6B00C2
(1735409626.551817) vcan0 095#800007F400000035
(1735409626.554729) vcan0 039#001B
(1735409626.555485) vcan0 1A4#0000000800000001
(1735409626.555496) vcan0 1AA#7FFF000000006801
(1735409626.555501) vcan0 1B0#000F0000000148
(1735409626.555505) vcan0 1D0#000000000000000A
(1735409626.555510) vcan0 166#D0320009
(1735409626.555515) vcan0 158#000000000000000A
(1735409626.557984) vcan0 244#0000000184
(1735409626.558160) vcan0 161#000005500108000D
(1735409626.558868) vcan0 191#010010A1410038
(1735409626.558983) vcan0 133#0000000098
(1735409626.558991) vcan0 136#000200000000001B
(1735409626.558996) vcan0 13A#0000000000000019
(1735409626.559000) vcan0 13F#000000050000001F
(1735409626.559005) vcan0 164#0000C01AA8000031
(1735409626.559009) vcan0 17C#0000000010000012
(1735409626.559014) vcan0 18E#00005C
(1735409626.559019) vcan0 309#00000000000000A2
(1735409626.559024) vcan0 428#01040000521C01
(1735409626.559029) vcan0 405#000004000000000B
(1735409626.562413) vcan0 183#0000000D0000101D
(1735409626.562429) vcan0 143#6B6B00D1
(1735409626.562434) vcan0 095#800007F400000008
(1735409626.565349) vcan0 166#D0320018
(1735409626.569855) vcan0 244#000000019C
(1735409626.569926) vcan0 158#0000000000000019
(1735409626.569941) vcan0 161#000005500108001C
(1735409626.569946) vcan0 191#010010A141000B
(1735409626.569950) vcan0 039#002A
(1735409626.569954) vcan0 133#00000000A7
(1735409626.569958) vcan0 136#000200000000002A
(1735409626.569962) vcan0 13A#0000000000000028
(1735409626.569966) vcan0 13F#000000050000002E
(1735409626.569970) vcan0 164#0000C01AA8000004
(1735409626.569974) vcan0 17C#0000000010000021
(1735409626.569980) vcan0 18E#00006B
(1735409626.569984) vcan0 1CF#80050000003C
(1735409626.569988) vcan0 1DC#02000039
(1735409626.569993) vcan0 183#0000000900001020
(1735409626.570004) vcan0 143#6B6B00E0
(1735409626.572781) vcan0 095#800007F400000017
(1735409626.575046) vcan0 1A4#0000000800000010
(1735409626.575055) vcan0 1AA#7FFF000000006711
(1735409626.575060) vcan0 1B0#000F0000000157
(1735409626.575064) vcan0 1D0#000000000000000A
(1735409626.575069) vcan0 166#D0320027
(1735409626.577879) vcan0 158#0000000000000028
(1735409626.579749) vcan0 161#000005500108002B
(1735409626.579757) vcan0 191#010010A141001A
(1735409626.579761) vcan0 133#00000000B6
(1735409626.579765) vcan0 136#0002000000000039
(1735409626.579769) vcan0 13A#0000000000000037
(1735409626.579773) vcan0 13F#000000050000003D
(1735409626.579777) vcan0 164#0000C01AA8000013
(1735409626.579781) vcan0 17C#0000000010000030
(1735409626.579785) vcan0 18E#00007A
(1735409626.579789) vcan0 294#040B0002CF5A002C
(1735409626.579793) vcan0 21E#03E8374522062F
(1735409626.579796) vcan0 183#0000000E0000103A
(1735409626.579800) vcan0 143#6B6B00FF
(1735409626.582878) vcan0 095#800007F400000026
(1735409626.584708) vcan0 5A1#960000000000623E
(1735409626.584715) vcan0 166#D0320036
(1735409626.588432) vcan0 158#0000000000000037
(1735409626.588455) vcan0 161#000005500108003A
(1735409626.588459) vcan0 191#010010A1410029
(1735409626.588463) vcan0 133#0000000089
(1735409626.588466) vcan0 039#0039
(1735409626.588470) vcan0 136#000200000000000C
(1735409626.588474) vcan0 13A#000000000000000A
(1735409626.588478) vcan0 13F#0000000500000000
(1735409626.588481) vcan0 164#0000C01AA8000022
(1735409626.588485) vcan0 17C#0000000010000003
(1735409626.588489) vcan0 18E#00004D
(1735409626.588493) vcan0 1CF#80050000000F
(1735409626.588496) vcan0 1DC#0200000C
(1735409626.589922) vcan0 244#00000001F9
(1735409626.593794) vcan0 183#0000000A00001001
(1735409626.595739) vcan0 143#6B6B00C2
(1735409626.595753) vcan0 095#800007F400000035
(1735409626.595762) vcan0 1A4#000000080000002F
(1735409626.595772) vcan0 1AA#7FFF000000006720
(1735409626.595784) vcan0 1B0#000F0000000166
(1735409626.595793) vcan0 1D0#000000000000000A
(1735409626.595802) vcan0 166#D0320009
(1735409626.595810) vcan0 158#000000000000000A
(1735409626.595819) vcan0 161#000005500108000D
(1735409626.599583) vcan0 191#010010A1410038
(1735409626.600333) vcan0 133#0000000098
(1735409626.600411) vcan0 136#000200000000001B
(1735409626.600416) vcan0 13A#0000000000000019
(1735409626.600420) vcan0 13F#000000050000001F
(1735409626.600424) vcan0 164#0000C01AA8000031
(1735409626.600429) vcan0 17C#0000000010000012
(1735409626.600433) vcan0 18E#00005C
(1735409626.600437) vcan0 183#0000000700001013
(1735409626.600442) vcan0 143#6B6B00D1
(1735409626.602050) vcan0 039#000C
(1735409626.604064) vcan0 095#800007F400000008
(1735409626.606353) vcan0 244#00000001E5
(1735409626.606459) vcan0 166#D0320018
(1735409626.607183) vcan0 158#0000000000000019
(1735409626.607264) vcan0 161#000005500108001C
(1735409626.607269) vcan0 191#010010A141000B
(1735409626.607274) vcan0 133#00000000A7
(1735409626.607278) vcan0 136#000200000000002A
(1735409626.607283) vcan0 13A#0000000000000028
(1735409626.607289) vcan0 13F#000000050000002E
(1735409626.607295) vcan0 164#0000C01AA8000004
(1735409626.608690) vcan0 17C#0000000010000021
(1735409626.608784) vcan0 18E#00006B
(1735409626.608791) vcan0 1CF#80050000001E
(1735409626.608797) vcan0 1DC#0200001B
(1735409626.610109) vcan0 183#0000000500001024
(1735409626.610181) vcan0 143#6B6B00E0
(1735409626.611779) vcan0 333#0000000000002D
(1735409626.611864) vcan0 095#800007F400000017
(1735409626.613294) vcan0 1A4#000000080000003E
(1735409626.613377) vcan0 1AA#7FFF00000000683E
(1735409626.613382) vcan0 1B0#000F0000000175
(1735409626.613387) vcan0 1D0#000000000000000A
(1735409626.614685) vcan0 039#001B
(1735409626.614759) vcan0 166#D0320027
(1735409626.616711) vcan0 158#0000000000000028
(1735409626.616800) vcan0 161#000005500108002B
(1735409626.616806) vcan0 191#010010A141001A
(1735409626.616810) vcan0 133#00000000B6
(1735409626.616814) vcan0 136#0002000000000039
(1735409626.616819) vcan0 13A#0000000000000037
(1735409626.618773) vcan0 244#000000017B
(1735409626.618828) vcan0 13F#000000050000003D
(1735409626.618846) vcan0 164#0000C01AA8000013
(1735409626.618851) vcan0 17C#0000000010000030
(1735409626.618855) vcan0 18E#00007A
(1735409626.618860) vcan0 294#040B0002CF5A003B
(1735409626.618864) vcan0 21E#03E8374522063E
(1735409626.620219) vcan0 183#0000000300001035
(1735409626.622259) vcan0 143#6B6B00FF
(1735409626.622268) vcan0 305#8026
(1735409626.622273) vcan0 095#800007F400000026
(1735409626.629322) vcan0 166#D0320036
(1735409626.631011) vcan0 158#0000000000000037
(1735409626.631020) vcan0 161#000005500108003A
(1735409626.631024) vcan0 191#010010A1410029
(1735409626.631028) vcan0 133#0000000089
(1735409626.631033) vcan0 136#000200000000000C
(1735409626.631037) vcan0 13A#000000000000000A
(1735409626.631041) vcan0 13F#0000000500000000
(1735409626.631045) vcan0 164#0000C01AA8000022
(1735409626.631049) vcan0 039#002A
(1735409626.631053) vcan0 17C#0000000010000003
(1735409626.631057) vcan0 18E#00004D
(1735409626.631061) vcan0 1CF#80050000002D
(1735409626.631065) vcan0 1DC#0200002A
(1735409626.631069) vcan0 320#000021
(1735409626.631075) vcan0 324#7465000000000E29
(1735409626.631079) vcan0 37C#FD00FD00097F0029
(1735409626.631083) vcan0 183#0000000A00001001
(1735409626.631087) vcan0 143#6B6B00C2
(1735409626.633494) vcan0 095#800007F400000035
(1735409626.635476) vcan0 1A4#0000000800000001
(1735409626.635482) vcan0 1AA#7FFF000000006801
(1735409626.635486) vcan0 1B0#000F0000000148
(1735409626.635490) vcan0 1D0#000000000000000A
(1735409626.635495) vcan0 166#D0320009
(1735409626.635499) vcan0 158#000000000000000A
(1735409626.638127) vcan0 161#000005500108000D
(1735409626.640217) vcan0 191#010010A1410038
(1735409626.640225) vcan0 133#0000000098
(1735409626.640230) vcan0 136#000200000000001B
(1735409626.640234) vcan0 13A#0000000000000019
(1735409626.640238) vcan0 13F#000000050000001F
(1735409626.640242) vcan0 164#0000C01AA8000031
(1735409626.640245) vcan0 17C#0000000010000012
(1735409626.640249) vcan0 18E#00005C
(1735409626.640253) vcan0 183#0000000700001013
(1735409626.640257) vcan0 143#6B6B00D1
(1735409626.640988) vcan0 244#000000012A
(1735409626.642874) vcan0 095#800007F400000008
(1735409626.646120) vcan0 166#D0320018
(1735409626.648268) vcan0 158#0000000000000019
(1735409626.648274) vcan0 161#000005500108001C
(1735409626.648277) vcan0 191#010010A141000B
(1735409626.648281) vcan0 133#00000000A7
(1735409626.648285) vcan0 136#000200000000002A
(1735409626.648289) vcan0 13A#0000000000000028
(1735409626.648293) vcan0 13F#000000050000002E
(1735409626.648296) vcan0 164#0000C01AA8000004
(1735409626.648300) vcan0 039#0039
(1735409626.648304) vcan0 17C#0000000010000021
(1735409626.648308) vcan0 18E#00006B
(1735409626.648314) vcan0 1CF#80050000003C
(1735409626.648317) vcan0 1DC#02000039
(1735409626.652465) vcan0 183#0000000500001024
(1735409626.654757) vcan0 143#6B6B00E0
(1735409626.654764) vcan0 095#800007F400000017
(1735409626.654768) vcan0 1A4#0000000800000010
(1735409626.654772) vcan0 1AA#7FFF000000006711
(1735409626.654776) vcan0 1B0#000F0000000157
(1735409626.654780) vcan0 1D0#000000000000000A
(1735409626.654785) vcan0 166#D0320027
(1735409626.656120) vcan0 244#0000000111
(1735409626.659318) vcan0 158#0000000000000028
(1735409626.661563) vcan0 161#000005500108002B
(1735409626.661571) vcan0 191#010010A141001A
(1735409626.661575) vcan0 133#00000000B6
(1735409626.661579) vcan0 136#0002000000000039
(1735409626.661583) vcan0 13A#0000000000000037
(1735409626.661587) vcan0 13F#000000050000003D
(1735409626.661591) vcan0 164#0000C01AA8000013
(1735409626.661595) vcan0 17C#0000000010000030
(1735409626.661599) vcan0 18E#00007A
(1735409626.661604) vcan0 294#040B0002CF5A000E
(1735409626.661607) vcan0 21E#03E83745220601
(1735409626.665764) vcan0 309#00000000000000B1
(1735409626.665771) vcan0 183#0000000B0000103D
(1735409626.665776) vcan0 143#6B6B00FF
(1735409626.665780) vcan0 039#000C
(1735409626.665784) vcan0 095#800007F400000026
(1735409626.665788) vcan0 166#D0320036
(1735409626.665792) vcan0 158#0000000000000037
(1735409626.665797) vcan0 161#000005500108003A
(1735409626.669513) vcan0 191#010010A1410029
(1735409626.669528) vcan0 133#0000000089
(1735409626.669533) vcan0 136#000200000000000C
(1735409626.669537) vcan0 13A#000000000000000A
(1735409626.669542) vcan0 13F#0000000500000000
(1735409626.669545) vcan0 164#0000C01AA8000022
(1735409626.670475) vcan0 17C#0000000010000003
(1735409626.670486) vcan0 18E#00004D
(1735409626.670492) vcan0 1CF#80050000000F
(1735409626.670498) vcan0 1DC#0200000C
(1735409626.670503) vcan0 183#0000000800001003
(1735409626.670516) vcan0 143#6B6B00C2
(1735409626.670664) vcan0 244#00000001B4
(1735409626.673457) vcan0 095#800007F400000035
(1735409626.678859) vcan0 1A4#000000080000002F
(1735409626.678875) vcan0 1AA#7FFF000000006720
(1735409626.678879) vcan0 1B0#000F0000000166
(1735409626.678885) vcan0 1D0#000000000000000A
(1735409626.678889) vcan0 166#D0320009
(1735409626.678894) vcan0 039#001B
(1735409626.678899) vcan0 158#000000000000000A
(1735409626.678903) vcan0 161#000005500108000D
(1735409626.678908) vcan0 191#010010A1410038
(1735409626.678913) vcan0 133#0000000098
(1735409626.678924) vcan0 136#000200000000001B
(1735409626.678928) vcan0 13A#0000000000000019
(1735409626.678932) vcan0 13F#000000050000001F
(1735409626.678936) vcan0 164#0000C01AA8000031
(1735409626.678940) vcan0 17C#0000000010000012
(1735409626.678944) vcan0 18E#00005C
(1735409626.681861) vcan0 183#0000000600001014
(1735409626.683192) vcan0 143#6B6B00D1
(1735409626.683198) vcan0 095#800007F400000008
(1735409626.685696) vcan0 166#D0320018
(1735409626.687318) vcan0 158#0000000000000019
(1735409626.687323) vcan0 161#000005500108001C
(1735409626.687327) vcan0 191#010010A141000B
(1735409626.687332) vcan0 133#00000000A7
(1735409626.687336) vcan0 136#000200000000002A
(1735409626.687341) vcan0 13A#0000000000000028
(1735409626.687344) vcan0 13F#000000050000002E
(1735409626.687348) vcan0 164#0000C01AA8000004
(1735409626.687352) vcan0 17C#0000000010000021
(1735409626.693604) vcan0 244#00000001FD
(1735409626.694627) vcan0 18E#00006B
(1735409626.694643) vcan0 1CF#80050000001E
(1735409626.694648) vcan0 1DC#0200001B
(1735409626.694653) vcan0 183#0000000C0000102D
(1735409626.694657) vcan0 143#6B6B00E0
(1735409626.694661) vcan0 039#002A
(1735409626.694666) vcan0 095#800007F400000017
(1735409626.694670) vcan0 1A4#000000080000003E
(1735409626.694674) vcan0 1AA#7FFF00000000683E
(1735409626.694678) vcan0 1B0#000F0000000175
(1735409626.694682) vcan0 1D0#000000000000000A
(1735409626.694687) vcan0 166#D0320027
(1735409626.697786) vcan0 158#0000000000000028
(1735409626.699723) vcan0 161#000005500108002B
(1735409626.699730) vcan0 191#010010A141001A
(1735409626.699733) vcan0 133#00000000B6
(1735409626.699738) vcan0 136#0002000000000039
(1735409626.699742) vcan0 13A#0000000000000037
(1735409626.699746) vcan0 13F#000000050000003D
(1735409626.699750) vcan0 164#0000C01AA8000013
(1735409626.699754) vcan0 17C#0000000010000030
(1735409626.699758) vcan0 18E#00007A
(1735409626.699761) vcan0 294#040B0002CF5A001D
(1735409626.699765) vcan0 21E#03E83745220610
(1735409626.699770) vcan0 183#000000090000103F
(1735409626.699775) vcan0 143#6B6B00FF
(1735409626.702295) vcan0 095#800007F400000026
(1735409626.706862) vcan0 166#D0320036
(1735409626.710195) vcan0 244#0000000106
(1735409626.713240) vcan0 158#0000000000000037
(1735409626.714662) vcan0 161#000005500108003A
(1735409626.714668) vcan0 191#010010A1410029
(1735409626.714673) vcan0 133#0000000089
(1735409626.714677) vcan0 136#000200000000000C
(1735409626.714680) vcan0 13A#000000000000000A
(1735409626.714684) vcan0 13F#0000000500000000
(1735409626.714688) vcan0 164#0000C01AA8000022
(1735409626.714692) vcan0 17C#0000000010000003
(1735409626.714695) vcan0 18E#00004D
(1735409626.714699) vcan0 1CF#80050000002D
(1735409626.714703) vcan0 1DC#0200002A
(1735409626.714707) vcan0 183#0000000E0000100D
(1735409626.714711) vcan0 143#6B6B00C2
(1735409626.714716) vcan0 039#0039
(1735409626.714720) vcan0 333#0000000000003C
(1735409626.714724) vcan0 095#800007F400000035
(1735409626.714727) vcan0 1A4#0000000800000001
(1735409626.714731) vcan0 1AA#7FFF000000006801
(1735409626.714735) vcan0 1B0#000F0000000148
(1735409626.714739) vcan0 1D0#000000000000000A
(1735409626.714742) vcan0 166#D0320009
(1735409626.717466) vcan0 158#000000000000000A
(1735409626.719387) vcan0 161#000005500108000D
(1735409626.719392) vcan0 191#010010A1410038
(1735409626.719396) vcan0 133#0000000098
(1735409626.719400) vcan0 136#000200000000001B
(1735409626.719403) vcan0 13A#0000000000000019
(1735409626.719407) vcan0 13F#000000050000001F
(1735409626.719410) vcan0 164#0000C01AA8000031
(1735409626.719414) vcan0 17C#0000000010000012
(1735409626.719419) vcan0 18E#00005C
(1735409626.719424) vcan0 183#0000000A00001010
(1735409626.722497) vcan0 143#6B6B00D1
(1735409626.723515) vcan0 244#0000000123
(1735409626.725470) vcan0 095#800007F400000008
(1735409626.725477) vcan0 305#8035
(1735409626.725489) vcan0 166#D0320018
(1735409626.725493) vcan0 158#0000000000000019
(1735409626.728134) vcan0 161#000005500108001C
(1735409626.729770) vcan0 191#010090A1410003
(1735409626.729775) vcan0 133#00000000A7
(1735409626.729779) vcan0 136#000200000000002A
(1735409626.729783) vcan0 13A#0000000000000028
(1735409626.729787) vcan0 13F#000000050000002E
(1735409626.729791) vcan0 164#0000C01AA8000004
(1735409626.729795) vcan0 17C#0000000010000021
(1735409626.729799) vcan0 18E#00006B
(1735409626.729802) vcan0 1CF#80050000003C
(1735409626.729806) vcan0 1DC#02000039
(1735409626.729810) vcan0 320#000030
(1735409626.729814) vcan0 324#7465000000000E38
(1735409626.729818) vcan0 37C#FD00FD00097F0038
(1735409626.729823) vcan0 183#0000000F0000102A
(1735409626.729827) vcan0 143#6B6B00E0
(1735409626.732635) vcan0 039#000C
(1735409626.734419) vcan0 095#800007F400000017
(1735409626.734426) vcan0 1A4#0000000800000010
(1735409626.734430) vcan0 1AA#7FFF000000006711
(1735409626.734434) vcan0 1B0#000F0000000157
(1735409626.734438) vcan0 1D0#000000000000000A
(1735409626.734442) vcan0 166#D0320027
(1735409626.734467) vcan0 244#00000001D2
(1735409626.738900) vcan0 158#0000000000000028
(1735409626.740726) vcan0 161#000005500108002B
(1735409626.740732) vcan0 191#010090A1410012
(1735409626.740736) vcan0 133#00000000B6
(1735409626.740740) vcan0 136#0002000000000039
(1735409626.740744) vcan0 13A#0000000000000037
(1735409626.740748) vcan0 13F#000000050000003D
(1735409626.740754) vcan0 164#0000C01AA8000013
(1735409626.740758) vcan0 17C#0000000010000030
(1735409626.740762) vcan0 18E#00007A
(1735409626.740766) vcan0 294#040B0002CF5A002C
(1735409626.740770) vcan0 21E#03E8374522062F
(1735409626.740774) vcan0 183#0000001300001034
(1735409626.740778) vcan0 143#6B6B00FF
(1735409626.746954) vcan0 244#000000015F
(1735409626.747013) vcan0 095#800007F400000026
(1735409626.747039) vcan0 166#D0320036
(1735409626.747045) vcan0 039#001B
(1735409626.747050) vcan0 158#0000000000000037
(1735409626.747055) vcan0 161#000005500108003A
(1735409626.747059) vcan0 191#010090A1410021
(1735409626.747064) vcan0 133#0000000089
(1735409626.747069) vcan0 136#000200000000000C
(1735409626.747073) vcan0 13A#000000000000000A
(1735409626.747079) vcan0 13F#0000000500000000
(1735409626.747086) vcan0 164#0000C01AA8000022
(1735409626.749361) vcan0 17C#0000000010000003
(1735409626.752063) vcan0 18E#00004D
(1735409626.756548) vcan0 1CF#80050000000F
(1735409626.758963) vcan0 1DC#0200000C
(1735409626.758972) vcan0 183#0000000E0000100D
(1735409626.758976) vcan0 143#6B6B00C2
(1735409626.758981) vcan0 095#800007F400000035
(1735409626.758985) vcan0 1A4#000000080000002F
(1735409626.758990) vcan0 1AA#7FFF000000006720
(1735409626.758994) vcan0 1B0#000F0000000166
(1735409626.758998) vcan0 1D0#000000000000000A
(1735409626.759003) vcan0 166#D0320009
(1735409626.759007) vcan0 158#000000000000000A
(1735409626.759011) vcan0 161#000005500108000D
(1735409626.759015) vcan0 191#010090A1410030
(1735409626.759021) vcan0 133#0000000098
(1735409626.759027) vcan0 136#000200000000001B
(1735409626.759032) vcan0 13A#0000000000000019
(1735409626.759036) vcan0 13F#000000050000001F
(1735409626.759040) vcan0 164#0000C01AA8000031
(1735409626.759044) vcan0 17C#0000000010000012
(1735409626.759048) vcan0 18E#00005C
(1735409626.759053) vcan0 309#0000000000000084
(1735409626.759057) vcan0 039#002A
(1735409626.761513) vcan0 183#0000000A00001010
(1735409626.761532) vcan0 143#6B6B00D1
(1735409626.764761) vcan0 244#00000001AC
(1735409626.772069) vcan0 095#800007F400000008
(1735409626.772091) vcan0 166#D0320018
(1735409626.772095) vcan0 158#0000000000000019
(1735409626.772099) vcan0 161#000005500108001C
(1735409626.772103) vcan0 191#010090A1410003
(1735409626.772107) vcan0 133#00000000A7
(1735409626.772111) vcan0 136#000200000000002A
(1735409626.772115) vcan0 13A#0000000000000028
(1735409626.772119) vcan0 13F#000000050000002E
(1735409626.772123) vcan0 164#0000C01AA8000004
(1735409626.772129) vcan0 17C#0000000010000021
(1735409626.772133) vcan0 18E#00006B
(1735409626.772137) vcan0 1CF#80050000001E
(1735409626.772141) vcan0 1DC#0200001B
(1735409626.772145) vcan0 183#0000000700001022
(1735409626.772149) vcan0 143#6B6B00E0
(1735409626.772153) vcan0 095#800007F400000017
(1735409626.775380) vcan0 1A4#000000080000003E
(1735409626.775401) vcan0 1AA#7FFF00000000683E
(1735409626.775415) vcan0 039#0039
(1735409626.775419) vcan0 1B0#000F0000000175
(1735409626.775423) vcan0 1D0#000000000000000A
(1735409626.775427) vcan0 166#D0320027
(1735409626.777967) vcan0 158#0000000000000028
(1735409626.780876) vcan0 161#000005500108002B
(1735409626.781491) vcan0 244#000000019D
(1735409626.782795) vcan0 191#010090A1410012
(1735409626.782801) vcan0 133#00000000B6
(1735409626.782805) vcan0 136#0002000000000039
(1735409626.782809) vcan0 13A#0000000000000037
(1735409626.782813) vcan0 13F#000000050000003D
(1735409626.782816) vcan0 164#0000C01AA8000013
(1735409626.782820) vcan0 17C#0000000010000030
(1735409626.782823) vcan0 18E#00007A
(1735409626.782827) vcan0 294#040B0002CF5A003B
(1735409626.782831) vcan0 21E#03E8374522063E
(1735409626.782835) vcan0 183#0000000D0000103B
(1735409626.782838) vcan0 143#6B6B00FF
(1735409626.782842) vcan0 095#800007F400000026
(1735409626.785078) vcan0 166#D0320036
(1735409626.786876) vcan0 158#0000000000000037
(1735409626.790226) vcan0 161#000005500108003A
(1735409626.791867) vcan0 191#010090A1410021
(1735409626.791874) vcan0 133#0000000089
(1735409626.791878) vcan0 136#000200000000000C
(1735409626.791882) vcan0 13A#000000000000000A
(1735409626.791885) vcan0 13F#0000000500000000
(1735409626.791889) vcan0 039#000C
(1735409626.791893) vcan0 164#0000C01AA8000022
(1735409626.791897) vcan0 17C#0000000010000003
(1735409626.791900) vcan0 18E#00004D
(1735409626.791904) vcan0 1CF#80050000002D
(1735409626.791907) vcan0 1DC#0200002A
(1735409626.791911) vcan0 183#0000001100001009
(1735409626.791915) vcan0 143#6B6B00C2
(1735409626.791918) vcan0 095#800007F400000035
(1735409626.799845) vcan0 244#0000000197
(1735409626.800649) vcan0 1A4#0000000800000001
(1735409626.800664) vcan0 1AA#7FFF000000006801
(1735409626.800669) vcan0 1B0#000F0000000148
(1735409626.800672) vcan0 1D0#000000000000000A
(1735409626.800676) vcan0 166#D0320009
(1735409626.800680) vcan0 158#000000000000000A
(1735409626.800731) vcan0 161#000005500108000D
(1735409626.800736) vcan0 191#010090A1410030
(1735409626.800740) vcan0 133#0000000098
(1735409626.800746) vcan0 136#000200000000001B
(1735409626.800750) vcan0 13A#0000000000000019
(1735409626.800755) vcan0 13F#000000050000001F
(1735409626.800759) vcan0 164#0000C01AA8000031
(1735409626.800763) vcan0 17C#0000000010000012
(1735409626.800767) vcan0 18E#00005C
(1735409626.800770) vcan0 183#0000000C0000101E
(1735409626.800774) vcan0 143#6B6B00D1
(1735409626.800778) vcan0 039#001B
(1735409626.804412) vcan0 095#800007F400000008
(1735409626.806715) vcan0 166#D0320018
(1735409626.806724) vcan0 158#0000000000000019
(1735409626.806729) vcan0 161#000005500108001C
(1735409626.806734) vcan0 191#010090A1410003
(1735409626.806739) vcan0 133#00000000A7
(1735409626.806745) vcan0 136#000200000000002A
(1735409626.806750) vcan0 13A#0000000000000028
(1735409626.810725) vcan0 13F#000000050000002E
(1735409626.810749) vcan0 164#0000C01AA8000004
(1735409626.810753) vcan0 17C#0000000010000021
(1735409626.810757) vcan0 18E#00006B
(1735409626.810760) vcan0 1CF#80050000003C
(1735409626.810764) vcan0 1DC#02000039
(1735409626.810769) vcan0 183#0000001000001028
(1735409626.810773) vcan0 143#6B6B00E0
(1735409626.810777) vcan0 333#0000000000000F
(1735409626.813220) vcan0 244#0000000139
(1735409626.813493) vcan0 095#800007F400000017
(1735409626.813513) vcan0 1A4#0000000800000010
(1735409626.813517) vcan0 1AA#7FFF000000006711
(1735409626.813521) vcan0 1B0#000F0000000157
(1735409626.813525) vcan0 1D0#000000000000000A
(1735409626.817489) vcan0 039#002A
(1735409626.820837) vcan0 166#D0320027
(1735409626.822941) vcan0 158#0000000000000028
(1735409626.825175) vcan0 161#000005500108002B
(1735409626.825183) vcan0 191#010090A1410012
(1735409626.825188) vcan0 133#00000000B6
(1735409626.825194) vcan0 136#0002000000000039
(1735409626.825198) vcan0 13A#0000000000000037
(1735409626.825202) vcan0 13F#000000050000003D
(1735409626.825206) vcan0 164#0000C01AA8000013
(1735409626.825211) vcan0 17C#0000000010000030
(1735409626.825216) vcan0 18E#00007A
(1735409626.825256) vcan0 294#040B0002CF5A000E
(1735409626.825265) vcan0 21E#03E83745220601
(1735409626.825269) vcan0 183#0000000C0000103C
(1735409626.825273) vcan0 143#6B6B00FF
(1735409626.825278) vcan0 095#800007F400000026
(1735409626.825282) vcan0 166#D0320036
(1735409626.827722) vcan0 244#0000000189
(1735409626.830388) vcan0 158#0000000000000037
(1735409626.832186) vcan0 161#000005500108003A
(1735409626.832194) vcan0 191#010090A1410021
(1735409626.832198) vcan0 133#0000000089
(1735409626.832202) vcan0 136#000200000000000C
(1735409626.832205) vcan0 13A#000000000000000A
(1735409626.832209) vcan0 039#0039
(1735409626.832213) vcan0 13F#0000000500000000
(1735409626.832217) vcan0 164#0000C01AA8000022
(1735409626.832220) vcan0 17C#0000000010000003
(1735409626.832224) vcan0 18E#00004D
(1735409626.832228) vcan0 1CF#80050000000F
(1735409626.832231) vcan0 1DC#0200000C
(1735409626.832235) vcan0 305#8008
(1735409626.832239) vcan0 320#000003
(1735409626.832243) vcan0 324#7465000000000E0B
(1735409626.832246) vcan0 37C#FD00FD00097F000B
(1735409626.832251) vcan0 183#0000000900001002
(1735409626.832255) vcan0 40C#033133383439000D
(1735409626.832258) vcan0 454#23EF09
(1735409626.832262) vcan0 143#6B6B00C2
(1735409626.832266) vcan0 095#800007F400000035
(1735409626.832272) vcan0 1A4#000000080000002F
(1735409626.836530) vcan0 1AA#7FFF000000006720
(1735409626.839460) vcan0 244#0000000133
(1735409626.839547) vcan0 1B0#000F0000000166
(1735409626.839555) vcan0 1D0#000000000000000A
(1735409626.839561) vcan0 166#D0320009
(1735409626.839565) vcan0 158#000000000000000A
(1735409626.839570) vcan0 161#000005500108000D
(1735409626.839574) vcan0 191#010090A1410030
(1735409626.839579) vcan0 133#0000000098
(1735409626.839583) vcan0 136#000200000000001B
(1735409626.839588) vcan0 13A#0000000000000019
(1735409626.839593) vcan0 13F#000000050000001F
(1735409626.839597) vcan0 164#0000C01AA8000031
(1735409626.839601) vcan0 17C#0000000010000012
(1735409626.839605) vcan0 18E#00005C
(1735409626.839610) vcan0 183#0000000E0000101C
(1735409626.839614) vcan0 143#6B6B00D1
(1735409626.846430) vcan0 039#000C
(1735409626.846453) vcan0 095#800007F400000008
(1735409626.846457) vcan0 166#D0320018
(1735409626.846461) vcan0 158#0000000000000019
(1735409626.846465) vcan0 161#000005500108001C
(1735409626.846469) vcan0 191#010090A1410003
(1735409626.846473) vcan0 133#00000000A7
(1735409626.846477) vcan0 136#000200000000002A
(1735409626.849405) vcan0 13A#0000000000000028
(1735409626.852975) vcan0 13F#000000050000002E
(1735409626.854132) vcan0 244#0000000135
(1735409626.854853) vcan0 164#0000C01AA8000004
(1735409626.854861) vcan0 17C#0000000010000021
(1735409626.854865) vcan0 18E#00006B
(1735409626.854869) vcan0 1CF#80050000001E
(1735409626.854872) vcan0 1DC#0200001B
(1735409626.854876) vcan0 183#0000000A0000102F
(1735409626.854880) vcan0 143#6B6B00E0
(1735409626.854884) vcan0 095#800007F400000017
(1735409626.854888) vcan0 1A4#000000080000003E
(1735409626.854892) vcan0 1AA#7FFF00000000683E
(1735409626.854896) vcan0 1B0#000F0000000175
(1735409626.854899) vcan0 1D0#000000000000000A
(1735409626.854903) vcan0 166#D0320027
(1735409626.858037) vcan0 158#0000000000000028
(1735409626.858476) vcan0 161#000005500108002B
(1735409626.858773) vcan0 191#010090A1410012
(1735409626.858904) vcan0 133#00000000B6
(1735409626.858915) vcan0 136#0002000000000039
(1735409626.858923) vcan0 13A#0000000000000037
(1735409626.858931) vcan0 039#001B
(1735409626.858940) vcan0 13F#000000050000003D
(1735409626.858948) vcan0 164#0000C01AA8000013
(1735409626.858956) vcan0 17C#0000000010000030
(1735409626.858964) vcan0 18E#00007A
(1735409626.858973) vcan0 294#040B0002CF5A001D
(1735409626.858981) vcan0 21E#03E83745220610
(1735409626.858989) vcan0 309#0000000000000093
(1735409626.858997) vcan0 428#01040000521C10
(1735409626.859006) vcan0 405#000004000000001A
(1735409626.860328) vcan0 183#0000000700001031
(1735409626.860732) vcan0 143#6B6B00FF
(1735409626.862622) vcan0 095#800007F400000026
(1735409626.865636) vcan0 244#00000001AF
(1735409626.866186) vcan0 166#D0320036
(1735409626.866303) vcan0 158#0000000000000037
(1735409626.866308) vcan0 161#000005500108003A
(1735409626.866313) vcan0 191#010090A1410021
(1735409626.866317) vcan0 133#0000000089
(1735409626.869390) vcan0 136#000200000000000C
(1735409626.869475) vcan0 13A#000000000000000A
(1735409626.869480) vcan0 13F#0000000500000000
(1735409626.869485) vcan0 164#0000C01AA8000022
(1735409626.869489) vcan0 17C#0000000010000003
(1735409626.869493) vcan0 18E#00004D
(1735409626.869497) vcan0 1CF#80050000002D
(1735409626.869501) vcan0 1DC#0200002A
(1735409626.869505) vcan0 183#0000000D0000100E
(1735409626.869518) vcan0 143#6B6B00C2
(1735409626.874327) vcan0 039#002A
(1735409626.874359) vcan0 095#800007F400000035
(1735409626.874364) vcan0 1A4#0000000800000001
(1735409626.874368) vcan0 1AA#7FFF000000006801
(1735409626.874373) vcan0 1B0#000F0000000148
(1735409626.874377) vcan0 1D0#000000000000000A
(1735409626.874381) vcan0 166#D0320009
(1735409626.877371) vcan0 158#000000000000000A
(1735409626.881807) vcan0 244#0000000195
(1735409626.883201) vcan0 161#000005500108000D
(1735409626.884182) vcan0 191#010090A1410030
(1735409626.884188) vcan0 133#0000000098
(1735409626.884193) vcan0 136#000200000000001B
(1735409626.884197) vcan0 13A#0000000000000019
(1735409626.884201) vcan0 13F#000000050000001F
(1735409626.884206) vcan0 164#0000C01AA9000030
(1735409626.884210) vcan0 17C#0000000010000012
(1735409626.884214) vcan0 18E#00005C
(1735409626.884219) vcan0 183#0000000900001011
(1735409626.884225) vcan0 143#6B6B00D1
(1735409626.884229) vcan0 095#800007F400000008
(1735409626.888334) vcan0 166#D0320018
(1735409626.890569) vcan0 158#0000000000000019
(1735409626.890578) vcan0 161#000005500108001C
(1735409626.890583) vcan0 191#010090A1410003
(1735409626.890587) vcan0 133#00000000A7
(1735409626.890591) vcan0 136#000200000000002A
(1735409626.890595) vcan0 13A#0000000000000028
(1735409626.890599) vcan0 13F#000000050000002E
(1735409626.890604) vcan0 164#0000C01AA8000004
(1735409626.890608) vcan0 17C#0000000010000021
(1735409626.890614) vcan0 18E#00006B
(1735409626.890618) vcan0 1CF#80050000003C
(1735409626.890622) vcan0 1DC#02000039
(1735409626.890626) vcan0 183#0000000E0000102B
(1735409626.890630) vcan0 143#6B6B00E0
(1735409626.890635) vcan0 039#0039
(1735409626.893314) vcan0 095#800007F400000017
(1735409626.893338) vcan0 1A4#0000000800000010
(1735409626.893344) vcan0 1AA#7FFF000000006711
(1735409626.893348) vcan0 1B0#000F0000000157
(1735409626.893354) vcan0 1D0#000000000000000A
(1735409626.895591) vcan0 166#D0320027
(1735409626.896386) vcan0 244#0000000192
(1735409626.898200) vcan0 158#0000000000000028
(1735409626.900012) vcan0 161#000005500108002B
(1735409626.900022) vcan0 191#010090A1410012
(1735409626.900027) vcan0 133#00000000B6
(1735409626.900031) vcan0 136#0002000000000039
(1735409626.900035) vcan0 13A#0000000000000037
(1735409626.900039) vcan0 13F#000000050000003D
(1735409626.900043) vcan0 164#0000C01AA8000013
(1735409626.900047) vcan0 17C#0000000010000030
(1735409626.900051) vcan0 18E#00007A
(1735409626.900055) vcan0 294#040B0002CF5A002C
(1735409626.900059) vcan0 21E#03E8374522062F
(1735409626.900064) vcan0 183#0000000A0000103E
(1735409626.900067) vcan0 143#6B6B00FF
(1735409626.904641) vcan0 095#800007F400000026
(1735409626.907578) vcan0 039#000C
(1735409626.907587) vcan0 166#D0320036
(1735409626.907591) vcan0 158#0000000000000037
(1735409626.907596) vcan0 161#000005500108003A
(1735409626.907600) vcan0 191#010090A1410021
(1735409626.907604) vcan0 133#0000000089
(1735409626.907609) vcan0 136#000200000000000C
(1735409626.907613) vcan0 13A#000000000000000A
(1735409626.907617) vcan0 13F#0000000500000000
(1735409626.907621) vcan0 164#0000C01AA8000022
(1735409626.907627) vcan0 17C#0000000010000003
(1735409626.907631) vcan0 18E#00004D
(1735409626.910412) vcan0 1CF#80050000000F
(1735409626.911267) vcan0 244#000000011C
(1735409626.912021) vcan0 1DC#0200000C
(1735409626.913518) vcan0 183#0000000700001004
(1735409626.913526) vcan0 143#6B6B00C2
(1735409626.913530) vcan0 333#0000000000001E
(1735409626.913534) vcan0 095#800007F400000035
(1735409626.913538) vcan0 1A4#000000080000002F
(1735409626.913542) vcan0 1AA#7FFF000000006720
(1735409626.913547) vcan0 1B0#000F0000000166
(1735409626.913551) vcan0 1D0#000000000000000A
(1735409626.915901) vcan0 166#D0320009
(1735409626.917673) vcan0 158#000000000000000A
(1735409626.917679) vcan0 161#000005500108000D
(1735409626.917683) vcan0 191#010090A1410030
(1735409626.917687) vcan0 133#0000000098
(1735409626.917691) vcan0 136#000200000000001B
(1735409626.917695) vcan0 13A#0000000000000019
(1735409626.917698) vcan0 13F#000000050000001F
(1735409626.917702) vcan0 164#0000C01AA8000031
(1735409626.917706) vcan0 039#001B
(1735409626.917709) vcan0 17C#0000000010000012
(1735409626.917713) vcan0 18E#00005C
(1735409626.920041) vcan0 183#0000000D0000101D
(1735409626.921984) vcan0 143#6B6B00D1
(1735409626.921991) vcan0 095#800007F400000008
(1735409626.924317) vcan0 166#D0320018
(1735409626.925619) vcan0 158#0000000000000019
(1735409626.925618) vcan0 244#00000001A4
(1735409626.925714) vcan0 161#000005500108001C
(1735409626.927307) vcan0 191#010090A1410003
(1735409626.927484) vcan0 133#00000000A7
(1735409626.927492) vcan0 136#000200000000002A
(1735409626.927497) vcan0 13A#0000000000000028
(1735409626.927776) vcan0 13F#000000050000002E
(1735409626.927793) vcan0 164#0000C01AA8000004
(1735409626.927799) vcan0 17C#0000000010000021
(1735409626.927803) vcan0 18E#00006B
(1735409626.927808) vcan0 1CF#80050000001E
(1735409626.929266) vcan0 1DC#0200001B
(1735409626.930404) vcan0 320#000012
(1735409626.930411) vcan0 324#7465000000000E1A
(1735409626.930415) vcan0 37C#FD00FD00097F001A
(1735409626.930419) vcan0 183#0000000900001020
(1735409626.930423) vcan0 143#6B6B00E0
(1735409626.930427) vcan0 039#002A
(1735409626.936290) vcan0 305#8017
(1735409626.936314) vcan0 095#800007F400000017
(1735409626.936318) vcan0 1A4#000000080000003E
(1735409626.936322) vcan0 1AA#7FFF00000000683E
(1735409626.936326) vcan0 1B0#000F0000000175
(1735409626.936330) vcan0 1D0#000000000000000A
(1735409626.936334) vcan0 166#D0320027
(1735409626.936338) vcan0 158#0000000000000028
(1735409626.936342) vcan0 161#000005500108002B
(1735409626.936346) vcan0 191#010090A1410012
(1735409626.936350) vcan0 133#00000000B6
(1735409626.936354) vcan0 136#0002000000000039
(1735409626.938081) vcan0 13A#0000000000000037
(1735409626.940304) vcan0 13F#000000050000003D
(1735409626.943158) vcan0 164#0000C01AA8000013
(1735409626.943166) vcan0 17C#0000000010000030
(1735409626.943170) vcan0 18E#00007A
(1735409626.943175) vcan0 294#040B0002CF5A003B
(1735409626.943179) vcan0 21E#03E8374522063E
(1735409626.943183) vcan0 183#0000000E0000103A
(1735409626.943187) vcan0 143#6B6B00FF
(1735409626.943191) vcan0 095#800007F400000026
(1735409626.946856) vcan0 244#0000000122
(1735409626.948536) vcan0 166#D0320036
(1735409626.948558) vcan0 158#0000000000000037
(1735409626.948563) vcan0 161#000005500108003A
(1735409626.948567) vcan0 191#010090A1410021
(1735409626.948572) vcan0 039#0039
(1735409626.948576) vcan0 133#0000000089
(1735409626.948581) vcan0 136#000200000000000C
(1735409626.948586) vcan0 13A#000000000000000A
(1735409626.948591) vcan0 13F#0000000500000000
(1735409626.948595) vcan0 164#0000C01AA8000022
(1735409626.948599) vcan0 17C#0000000010000003
(1735409626.948603) vcan0 18E#00004D
(1735409626.948606) vcan0 1CF#80050000002D
(1735409626.948610) vcan0 1DC#0200002A
(1735409626.952885) vcan0 183#0000000A00001001
(1735409626.952906) vcan0 143#6B6B00C2
(1735409626.952910) vcan0 095#800007F400000035
(1735409626.952914) vcan0 1A4#0000000800000001
(1735409626.952918) vcan0 1AA#7FFF000000006801
(1735409626.952921) vcan0 1B0#000F0000000148
(1735409626.952925) vcan0 1D0#000000000000000A
(1735409626.956068) vcan0 166#D0320009
(1735409626.958064) vcan0 158#000000000000000A
(1735409626.958073) vcan0 161#000005500108000D
(1735409626.958077) vcan0 191#010090A1410030
(1735409626.958081) vcan0 133#0000000098
(1735409626.958085) vcan0 136#000200000000001B
(1735409626.958089) vcan0 13A#0000000000000019
(1735409626.958092) vcan0 13F#000000050000001F
(1735409626.958096) vcan0 164#0000C01AA8000031
(1735409626.958100) vcan0 17C#0000000010000012
(1735409626.958103) vcan0 18E#00005C
(1735409626.958107) vcan0 309#00000000000000A2
(1735409626.960123) vcan0 244#0000000121
(1735409626.962438) vcan0 183#0000000700001013
(1735409626.965195) vcan0 143#6B6B00D1
(1735409626.965203) vcan0 039#000C
(1735409626.965208) vcan0 095#800007F400000008
(1735409626.965212) vcan0 166#D0320018
(1735409626.970759) vcan0 158#0000000000000019
(1735409626.972750) vcan0 161#000005500108001C
(1735409626.972758) vcan0 191#010090A1410003
(1735409626.972762) vcan0 133#00000000A7
(1735409626.972767) vcan0 136#000200000000002A
(1735409626.972771) vcan0 13A#0000000000000028
(1735409626.972775) vcan0 13F#000000050000002E
(1735409626.972779) vcan0 164#0000C01AA8000004
(1735409626.972783) vcan0 17C#0000000010000021
(1735409626.972789) vcan0 18E#00006B
(1735409626.972793) vcan0 1CF#80050000003C
(1735409626.972797) vcan0 1DC#02000039
(1735409626.972802) vcan0 183#0000000500001024
(1735409626.972808) vcan0 143#6B6B00E0
(1735409626.972812) vcan0 095#800007F400000017
(1735409626.972816) vcan0 1A4#0000000800000010
(1735409626.972829) vcan0 1AA#7FFF000000006711
(1735409626.972833) vcan0 1B0#000F0000000157
(1735409626.977099) vcan0 244#0000000188
(1735409626.978012) vcan0 1D0#000000000000000A
(1735409626.980237) vcan0 039#001B
(1735409626.980243) vcan0 166#D0320027
(1735409626.980247) vcan0 158#0000000000000028
(1735409626.980251) vcan0 161#000005500108002B
(1735409626.980255) vcan0 191#010090A1410012
(1735409626.980259) vcan0 133#00000000B6
(1735409626.980263) vcan0 136#0002000000000039
(1735409626.980267) vcan0 13A#0000000000000037
(1735409626.980271) vcan0 13F#000000050000003D
(1735409626.980276) vcan0 164#0000C01AA8000013
(1735409626.980279) vcan0 17C#0000000010000030
(1735409626.980284) vcan0 18E#00007A
(1735409626.980288) vcan0 294#040B0002CF5A000E
(1735409626.980292) vcan0 21E#03E83745220601
(1735409626.980296) vcan0 183#0000000300001035
(1735409626.980300) vcan0 143#6B6B00FF
(1735409626.984252) vcan0 095#800007F400000026
(1735409626.984275) vcan0 166#D0320036
(1735409626.988521) vcan0 158#0000000000000037
(1735409626.988561) vcan0 161#000005500108003A
(1735409626.988566) vcan0 191#010090A1410021
(1735409626.988571) vcan0 133#0000000089
(1735409626.988575) vcan0 136#000200000000000C
(1735409626.988580) vcan0 13A#000000000000000A
(1735409626.988585) vcan0 13F#0000000500000000
(1735409626.988588) vcan0 164#0000C01AA8000022
(1735409626.988593) vcan0 17C#0000000010000003
(1735409626.988596) vcan0 18E#00004D
(1735409626.988600) vcan0 1CF#80050000000F
(1735409626.988604) vcan0 1DC#0200000C
(1735409626.991893) vcan0 244#00000001E3
(1735409626.992778) vcan0 183#0000000A00001001
(1735409626.992799) vcan0 039#002A
(1735409626.992803) vcan0 143#6B6B00C2
(1735409626.992808) vcan0 095#800007F400000035
(1735409626.992812) vcan0 1A4#000000080000002F
(1735409626.992816) vcan0 1AA#7FFF000000006720
(1735409626.992821) vcan0 1B0#000F0000000166
(1735409626.996038) vcan0 1D0#000000000000000A
(1735409626.998295) vcan0 166#D0320009
(1735409626.998302) vcan0 158#000000000000000A
(1735409626.998307) vcan0 161#000005500108000D
(1735409626.998311) vcan0 191#010090A1410030
(1735409626.998315) vcan0 133#0000000098
(1735409626.998319) vcan0 136#000200000000001B
(1735409626.998323) vcan0 13A#0000000000000019
(1735409626.998327) vcan0 13F#000000050000001F
(1735409626.998331) vcan0 164#0000C01AA8000031
(1735409626.998336) vcan0 17C#0000000010000012
(1735409626.998340) vcan0 18E#00005C
(1735409627.002793) vcan0 183#0000000700001013
(1735409627.003233) vcan0 143#6B6B00D1
(1735409627.003244) vcan0 095#800007F400000008
(1735409627.003248) vcan0 039#0039
(1735409627.004865) vcan0 166#D0320018
(1735409627.007833) vcan0 158#0000000000000019
(1735409627.010954) vcan0 161#000005500108001C
(1735409627.010965) vcan0 191#010090A1410003
(1735409627.010970) vcan0 133#00000000A7
(1735409627.010974) vcan0 136#000200000000002A
(1735409627.010979) vcan0 13A#0000000000000028
(1735409627.010983) vcan0 13F#000000050000002E
(1735409627.010987) vcan0 164#0000C01AA8000004
(1735409627.010991) vcan0 17C#0000000010000021
(1735409627.010996) vcan0 18E#00006B
(1735409627.011000) vcan0 1CF#80050000001E
(1735409627.011005) vcan0 1DC#0200001B
(1735409627.011009) vcan0 183#0000000500001024
(1735409627.011013) vcan0 143#6B6B00E0
(1735409627.011018) vcan0 333#0000000000002D
(1735409627.011679) vcan0 244#0000000149
(1735409627.015205) vcan0 095#800007F400000017
(1735409627.019212) vcan0 1A4#000000080000003E
(1735409627.019220) vcan0 1AA#7FFF00000000683E
(1735409627.019224) vcan0 1B0#000F0000000175
(1735409627.019229) vcan0 1D0#000000000000000A
(1735409627.019233) vcan0 166#D0320027
(1735409627.019237) vcan0 158#0000000000000028
(1735409627.019241) vcan0 161#000005500108002B
(1735409627.019245) vcan0 191#010090A1410012
(1735409627.019249) vcan0 133#00000000B6
(1735409627.019254) vcan0 136#0002000000000039
(1735409627.019258) vcan0 13A#0000000000000037
(1735409627.019262) vcan0 13F#000000050000003D
(1735409627.019266) vcan0 164#0000C01AA8000013
(1735409627.019270) vcan0 17C#0000000010000030
(1735409627.019274) vcan0 18E#00007A
(1735409627.019278) vcan0 294#040B0002CF5A001D
(1735409627.019282) vcan0 21E#03E83745220610
(1735409627.022605) vcan0 183#0000000B0000103D
(1735409627.024905) vcan0 143#6B6B00FF
(1735409627.024913) vcan0 095#800007F400000026
(1735409627.024917) vcan0 039#000C
(1735409627.024921) vcan0 166#D0320036
(1735409627.026715) vcan0 244#0000000154
(1735409627.028070) vcan0 188#00000000
(1735409627.028787) vcan0 158#0000000000000037
(1735409627.029421) vcan0 161#000005500108003A
(1735409627.029425) vcan0 191#010010A1410029
(1735409627.029430) vcan0 133#0000000089
(1735409627.029433) vcan0 136#000200000000000C
(1735409627.029437) vcan0 13A#000000000000000A
(1735409627.029441) vcan0 13F#0000000500000000
(1735409627.029445) vcan0 164#0000C01AA8000022
(1735409627.029449) vcan0 17C#0000000010000003
(1735409627.029493) vcan0 18E#00004D
(1735409627.029497) vcan0 1CF#80050000002D
(1735409627.029501) vcan0 1DC#0200002A
(1735409627.029506) vcan0 320#000021
(1735409627.029510) vcan0 324#7465000000000E29
(1735409627.029514) vcan0 37C#FD00FD00097F0029
(1735409627.029519) vcan0 183#0000000800001003
(1735409627.029522) vcan0 143#6B6B00C2
(1735409627.032037) vcan0 095#800007F400000035
(1735409627.033564) vcan0 1A4#0000000800000001
(1735409627.033630) vcan0 1AA#7FFF000000006801
(1735409627.033635) vcan0 1B0#000F0000000148
(1735409627.033639) vcan0 1D0#000000000000000A
(1735409627.035143) vcan0 166#D0320009
(1735409627.036445) vcan0 158#000000000000000A
(1735409627.036699) vcan0 161#000005500108000D
(1735409627.036705) vcan0 039#001B
(1735409627.036711) vcan0 191#010010A1410038
(1735409627.036716) vcan0 133#0000000098
(1735409627.036720) vcan0 136#000200000000001B
(1735409627.040944) vcan0 13A#0000000000000019
(1735409627.041339) vcan0 244#0000000104
(1735409627.043351) vcan0 13F#000000050000001F
(1735409627.043368) vcan0 164#0000C01AA8000031
(1735409627.043372) vcan0 17C#0000000010000012
(1735409627.043377) vcan0 18E#00005C
(1735409627.043381) vcan0 305#8026
(1735409627.043386) vcan0 183#0000000600001014
(1735409627.043390) vcan0 143#6B6B00D1
(1735409627.043394) vcan0 095#800007F400000008
(1735409627.046413) vcan0 166#D0320018
(1735409627.046930) vcan0 158#0000000000000019
(1735409627.046936) vcan0 161#000005500108001C
(1735409627.046940) vcan0 191#010010A141000B
(1735409627.046944) vcan0 133#00000000A7
(1735409627.046948) vcan0 136#000200000000002A
(1735409627.046953) vcan0 13A#0000000000000028
(1735409627.046958) vcan0 13F#000000050000002E
(1735409627.048609) vcan0 164#0000C01AA8000004
(1735409627.048632) vcan0 17C#0000000010000021
(1735409627.048637) vcan0 18E#00006B
(1735409627.048643) vcan0 1CF#80050000003C
(1735409627.048648) vcan0 1DC#02000039
(1735409627.050272) vcan0 183#0000000C0000102D
(1735409627.053245) vcan0 143#6B6B00E0
(1735409627.053256) vcan0 039#002A
(1735409627.053261) vcan0 095#800007F400000017
(1735409627.053267) vcan0 1A4#0000000800000010
(1735409627.053271) vcan0 1AA#7FFF000000006711
(1735409627.053275) vcan0 1B0#000F0000000157
(1735409627.053279) vcan0 1D0#000000000000000A
(1735409627.054322) vcan0 244#0000000182
(1735409627.055174) vcan0 166#D0320027
(1735409627.061025) vcan0 158#0000000000000028
(1735409627.069993) vcan0 161#000005500108002B
(1735409627.070004) vcan0 191#010010A141001A
(1735409627.070008) vcan0 133#00000000B6
(1735409627.070012) vcan0 136#0002000000000039
(1735409627.070016) vcan0 13A#0000000000000037
(1735409627.070020) vcan0 13F#000000050000003D
(1735409627.070024) vcan0 164#0000C01AA8000013
(1735409627.070028) vcan0 17C#0000000010000030
(1735409627.070032) vcan0 18E#00007A
(1735409627.070036) vcan0 294#040B0002CF5A002C
(1735409627.070041) vcan0 21E#03E8374522062F
(1735409627.070045) vcan0 309#00000000000000B1
(1735409627.070049) vcan0 183#000000090000103F
(1735409627.070053) vcan0 143#6B6B00FF
(1735409627.070057) vcan0 095#800007F400000026
(1735409627.070060) vcan0 166#D0320036
(1735409627.070064) vcan0 158#0000000000000037
(1735409627.070068) vcan0 161#000005500108003A
(1735409627.070073) vcan0 191#010010A1410029
(1735409627.070077) vcan0 039#0039
(1735409627.070081) vcan0 133#0000000089
(1735409627.070085) vcan0 136#000200000000000C
(1735409627.070089) vcan0 13A#000000000000000A
(1735409627.070092) vcan0 13F#0000000500000000
(1735409627.070096) vcan0 164#0000C01AA8000022
(1735409627.070100) vcan0 17C#0000000010000003
(1735409627.070106) vcan0 18E#00004D
(1735409627.070110) vcan0 1CF#80050000000F
(1735409627.070114) vcan0 1DC#0200000C
(1735409627.070118) vcan0 183#0000000E0000100D
(1735409627.070122) vcan0 143#6B6B00C2
(1735409627.071131) vcan0 244#000000016A
(1735409627.078028) vcan0 095#800007F400000035
(1735409627.082268) vcan0 1A4#000000080000002F
(1735409627.085093) vcan0 1AA#7FFF000000006720
(1735409627.085884) vcan0 244#0000000105
(1735409627.090034) vcan0 1B0#000F0000000166
(1735409627.090691) vcan0 1D0#000000000000000A
(1735409627.090696) vcan0 166#D0320009
(1735409627.090701) vcan0 158#000000000000000A
(1735409627.090705) vcan0 161#000005500108000D
(1735409627.090711) vcan0 191#010010A1410038
(1735409627.090715) vcan0 133#0000000098
(1735409627.090719) vcan0 136#000200000000001B
(1735409627.090723) vcan0 13A#0000000000000019
(1735409627.090727) vcan0 13F#000000050000001F
(1735409627.090732) vcan0 164#0000C01AA8000031
(1735409627.090736) vcan0 17C#0000000010000012
(1735409627.090740) vcan0 18E#00005C
(1735409627.090744) vcan0 039#000C
(1735409627.090748) vcan0 183#0000000A00001010
(1735409627.090752) vcan0 143#6B6B00D1
(1735409627.090755) vcan0 095#800007F800000004
(1735409627.090760) vcan0 166#D0320018
(1735409627.090766) vcan0 158#0000000000000019
(1735409627.090770) vcan0 161#000005500108001C
(1735409627.090774) vcan0 191#010010A141000B
(1735409627.090778) vcan0 133#00000000A7
(1735409627.090782) vcan0 136#000200000000002A
(1735409627.090786) vcan0 13A#0000000000000028
(1735409627.090790) vcan0 13F#000000050000002E
(1735409627.090794) vcan0 164#0000C01AA8000004
(1735409627.090798) vcan0 17C#0000000010000021
(1735409627.090808) vcan0 18E#00006B
(1735409627.090812) vcan0 1CF#80050000001E
(1735409627.090816) vcan0 1DC#0200001B
(1735409627.090820) vcan0 183#0000000700001022
(1735409627.090824) vcan0 143#6B6B00E0
(1735409627.095298) vcan0 095#800007F800000013
(1735409627.096800) vcan0 1A4#000000080000003E
(1735409627.096871) vcan0 1AA#7FFF00000000683E
(1735409627.096876) vcan0 1B0#000F0000000175
(1735409627.096880) vcan0 1D0#000000000000000A
(1735409627.096884) vcan0 166#D0320027
(1735409627.096888) vcan0 039#001B
(1735409627.096893) vcan0 158#0000000000000028
(1735409627.096898) vcan0 161#000005500108002B
(1735409627.096902) vcan0 191#010010A141001A
(1735409627.096906) vcan0 133#00000000B6
(1735409627.096910) vcan0 136#0002000000000039
(1735409627.096914) vcan0 13A#0000000000000037
(1735409627.096919) vcan0 13F#000000050000003D
(1735409627.098685) vcan0 164#0000C01AA8000013
(1735409627.098774) vcan0 17C#0000000010000030
(1735409627.098779) vcan0 18E#00007A
(1735409627.098783) vcan0 294#040B0002CF5A003B
(1735409627.098787) vcan0 21E#03E8374522063E
(1735409627.100510) vcan0 244#0000000119
(1735409627.104859) vcan0 183#0000000D0000103B
(1735409627.110151) vcan0 143#6B6B00FF
(1735409627.111724) vcan0 095#800007F800000022
(1735409627.111735) vcan0 166#D0320036
(1735409627.111739) vcan0 158#0000000000000037
(1735409627.111743) vcan0 161#000005500108003A
(1735409627.111747) vcan0 191#010010A1410029
(1735409627.111751) vcan0 133#0000000089
(1735409627.111755) vcan0 136#000200000000000C
(1735409627.111759) vcan0 13A#000000000000000A
(1735409627.111763) vcan0 13F#0000000500000000
(1735409627.111767) vcan0 164#0000C01AA8000022
(1735409627.111771) vcan0 17C#0000000010000003
(1735409627.111775) vcan0 18E#00004D
(1735409627.111779) vcan0 1CF#80050000002D
(1735409627.111783) vcan0 1DC#0200002A
(1735409627.111787) vcan0 039#002A
(1735409627.111792) vcan0 183#0000000900001002
(1735409627.111796) vcan0 143#6B6B00C2
(1735409627.111800) vcan0 333#0000000000003C
(1735409627.111804) vcan0 095#800007F800000031
(1735409627.116139) vcan0 244#0000000131
(1735409627.116291) vcan0 1A4#0000000800000001
(1735409627.117812) vcan0 1AA#7FFF000000006801
(1735409627.117820) vcan0 1B0#000F0000000148
(1735409627.117824) vcan0 1D0#000000000000000A
(1735409627.117828) vcan0 166#D0320009
(1735409627.117832) vcan0 158#000000000000000A
(1735409627.117836) vcan0 161#000005500108000D
(1735409627.117841) vcan0 191#010010A1410038
(1735409627.117845) vcan0 133#0000000098
(1735409627.117849) vcan0 136#000200000000001B
(1735409627.117853) vcan0 13A#0000000000000019
(1735409627.117857) vcan0 13F#000000050000001F
(1735409627.117861) vcan0 164#0000C01AA8000031
(1735409627.117865) vcan0 17C#0000000010000012
(1735409627.117869) vcan0 18E#00005C
(1735409627.120822) vcan0 183#0000000E0000101C
(1735409627.121582) vcan0 143#6B6B00D1
(1735409627.122827) vcan0 095#800007F800000004
(1735409627.124513) vcan0 166#D0320018
(1735409627.126453) vcan0 158#0000000000000019
(1735409627.127908) vcan0 161#000005500108001C
(1735409627.127915) vcan0 191#010010A141000B
(1735409627.127927) vcan0 133#00000000A7
(1735409627.127931) vcan0 136#000200000000002A
(1735409627.127936) vcan0 13A#0000000000000028
(1735409627.127951) vcan0 13F#000000050000002E
(1735409627.127955) vcan0 164#0000C01AA8000004
(1735409627.127960) vcan0 17C#0000000010000021
(1735409627.127964) vcan0 18E#00006B
(1735409627.127968) vcan0 1CF#80050000003C
(1735409627.127972) vcan0 039#0039
(1735409627.131315) vcan0 1DC#02000039
(1735409627.131335) vcan0 320#000030
(1735409627.131339) vcan0 324#7465000000000E38
(1735409627.131343) vcan0 37C#FD00FD00097F0038
(1735409627.131347) vcan0 40C#0000000004000013
(1735409627.131351) vcan0 183#0000000A0000102F
(1735409627.131355) vcan0 454#23EF18
(1735409627.131359) vcan0 143#6B6B00E0
(1735409627.132833) vcan0 244#00000001B3
(1735409627.132976) vcan0 095#800007F800000013
(1735409627.132992) vcan0 1A4#0000000800000010
(1735409627.132996) vcan0 1AA#7FFF000000006711
(1735409627.132999) vcan0 1B0#000F0000000157
(1735409627.133003) vcan0 1D0#000000000000000A
(1735409627.134373) vcan0 166#D0320027
(1735409627.136197) vcan0 158#0000000000000028
(1735409627.136274) vcan0 161#000005500108002B
(1735409627.136279) vcan0 191#010010A141001A
(1735409627.136283) vcan0 133#00000000B6
(1735409627.138238) vcan0 136#0002000000000039
(1735409627.140451) vcan0 13A#0000000000000037
(1735409627.140460) vcan0 13F#000000050000003D
(1735409627.140464) vcan0 164#0000C01AA8000013
(1735409627.140469) vcan0 17C#0000000010000030
(1735409627.140473) vcan0 18E#00007A
(1735409627.140477) vcan0 294#040B0002CF5A000E
(1735409627.140482) vcan0 21E#03E83745220601
(1735409627.140486) vcan0 183#0000000700001031
(1735409627.140490) vcan0 143#6B6B00FF
(1735409627.150236) vcan0 244#000000016A
(1735409627.151239) vcan0 039#000C
(1735409627.151255) vcan0 305#8035
(1735409627.151260) vcan0 095#800007F800000022
(1735409627.151264) vcan0 166#D0320036
(1735409627.151268) vcan0 158#0000000000000037
(1735409627.151271) vcan0 161#000005500108003A
(1735409627.151276) vcan0 191#010010A1410029
(1735409627.151280) vcan0 133#0000000089
(1735409627.151285) vcan0 136#000200000000000C
(1735409627.151289) vcan0 13A#000000000000000A
(1735409627.151292) vcan0 13F#0000000500000000
(1735409627.151302) vcan0 164#0000C01AA8000022
(1735409627.151306) vcan0 17C#0000000010000003
(1735409627.151310) vcan0 18E#00004D
(1735409627.151314) vcan0 1CF#80050000000F
(1735409627.151318) vcan0 1DC#0200000C
(1735409627.151323) vcan0 183#0000000D0000100E
(1735409627.151327) vcan0 143#6B6B00C2
(1735409627.155371) vcan0 095#800007F800000031
(1735409627.155393) vcan0 1A4#000000080000002F
(1735409627.155397) vcan0 1AA#7FFF000000006720
(1735409627.155401) vcan0 1B0#000F0000000166
(1735409627.155404) vcan0 1D0#000000000000000A
(1735409627.155408) vcan0 166#D0320009
(1735409627.158434) vcan0 158#000000000000000A
(1735409627.158460) vcan0 161#000005500108000D
(1735409627.158464) vcan0 039#001B
(1735409627.158469) vcan0 191#010010A1410038
(1735409627.158474) vcan0 133#0000000098
(1735409627.158479) vcan0 136#000200000000001B
(1735409627.158482) vcan0 13A#0000000000000019
(1735409627.158487) vcan0 13F#000000050000001F
(1735409627.158491) vcan0 164#0000C01AA8000031
(1735409627.158495) vcan0 17C#0000000010000012
(1735409627.158499) vcan0 18E#00005C
(1735409627.158503) vcan0 309#0000000000000084
(1735409627.158508) vcan0 428#01040000521C2F
(1735409627.158512) vcan0 405#0000040000000029
(1735409627.163120) vcan0 183#0000000900001011
(1735409627.163141) vcan0 143#6B6B00D1
(1735409627.163145) vcan0 095#800007F800000004
(1735409627.166622) vcan0 244#000000014A
(1735409627.167600) vcan0 166#D0320018
(1735409627.167661) vcan0 158#0000000000000019
(1735409627.167665) vcan0 161#000005500108001C
(1735409627.167669) vcan0 191#010010A141000B
(1735409627.167673) vcan0 133#00000000A7
(1735409627.167677) vcan0 136#000200000000002A
(1735409627.167680) vcan0 13A#0000000000000028
(1735409627.167684) vcan0 13F#000000050000002E
(1735409627.167688) vcan0 164#0000C01AA8000004
(1735409627.167692) vcan0 17C#0000000010000021
(1735409627.167695) vcan0 18E#00006B
(1735409627.167699) vcan0 1CF#80050000001E
(1735409627.171255) vcan0 1DC#0200001B
(1735409627.173442) vcan0 183#0000000600001023
(1735409627.173448) vcan0 143#6B6B00E0
(1735409627.173452) vcan0 039#002A
(1735409627.173457) vcan0 095#800007F800000013
(1735409627.173468) vcan0 1A4#000000080000003E
(1735409627.186801) vcan0 244#0000000156
(1735409627.195084) vcan0 166#D0320009
(1735409627.197276) vcan0 158#000000000000000A
(1735409627.197285) vcan0 161#000005500108000D
(1735409627.197289) vcan0 191#010090A1410030
(1735409627.197292) vcan0 18E#00005C
(1735409627.197297) vcan0 133#0000000098
(1735409627.197300) vcan0 136#000200000000001B
(1735409627.197304) vcan0 13A#0000000000000019
(1735409627.197308) vcan0 13F#000000050000001F
(1735409627.197312) vcan0 164#0000C01AA8000031
(1735409627.197315) vcan0 17C#0000000010000012
(1735409627.197319) vcan0 183#0000000E0000101C
(1735409627.197323) vcan0 039#000C
(1735409627.197327) vcan0 143#6B6B00D1
(1735409627.197330) vcan0 095#800007F400000008
(1735409627.197336) vcan0 166#D0320018
(1735409627.197341) vcan0 158#0000000000000019
(1735409627.197345) vcan0 161#000005500108001C
(1735409627.197348) vcan0 191#010090A1410003
(1735409627.199594) vcan0 164#0000C01AA8000004
(1735409627.204178) vcan0 244#00000001A9
(1735409627.206051) vcan0 133#00000000A7
(1735409627.206063) vcan0 136#000200000000002A
(1735409627.206068) vcan0 13A#0000000000000028
(1735409627.206074) vcan0 13F#000000050000002E
(1735409627.206078) vcan0 17C#0000000010000021
(1735409627.206082) vcan0 18E#00006B
(1735409627.206086) vcan0 1CF#80050000003C
(1735409627.206090) vcan0 1DC#02000039
(1735409627.206094) vcan0 320#000030
(1735409627.206098) vcan0 324#7465000000000E38
(1735409627.206103) vcan0 183#0000000A0000102F
(1735409627.206107) vcan0 37C#FD00FD00097F0038
(1735409627.206110) vcan0 143#6B6B00E0
(1735409627.206114) vcan0 095#800007F400000017
(1735409627.206118) vcan0 1A4#0000000800000010
(1735409627.206123) vcan0 1AA#7FFF000000006810
(1735409627.206127) vcan0 1B0#000F0000000157
(1735409627.206132) vcan0 1D0#000000000000000A
(1735409627.206139) vcan0 039#001B
(1735409627.206143) vcan0 166#D0320027
(1735409627.216419) vcan0 158#0000000000000028
(1735409627.218208) vcan0 161#000005500108002B
(1735409627.218213) vcan0 191#010090A1410012
(1735409627.218217) vcan0 164#0000C01AA8000013
(1735409627.218222) vcan0 133#00000000B6
(1735409627.218225) vcan0 136#0002000000000039
(1735409627.218229) vcan0 13A#0000000000000037
(1735409627.218233) vcan0 13F#000000050000003D
(1735409627.218237) vcan0 17C#0000000010000030
(1735409627.218241) vcan0 18E#00007A
(1735409627.218244) vcan0 294#040B0002CF5A000E
(1735409627.218249) vcan0 21E#03E83745220601
(1735409627.218254) vcan0 183#0000000F00001039
(1735409627.218258) vcan0 143#6B6B00FF
(1735409627.218262) vcan0 095#800007F400000026
(1735409627.218266) vcan0 166#D0320036
(1735409627.218270) vcan0 158#0000000000000037
(1735409627.218274) vcan0 161#000005500108003A
(1735409627.218277) vcan0 164#0000C01AA8000022
(1735409627.218281) vcan0 191#010090A1410021
(1735409627.218285) vcan0 133#0000000089
(1735409627.218288) vcan0 136#000200000000000C
(1735409627.218292) vcan0 13A#000000000000000A
(1735409627.220343) vcan0 13F#0000000500000000
(1735409627.220359) vcan0 17C#0000000010000003
(1735409627.220363) vcan0 18E#00004D
(1735409627.220367) vcan0 1CF#80050000000F
(1735409627.220370) vcan0 1DC#0200000C
(1735409627.220374) vcan0 183#0000000B00001000
(1735409627.221599) vcan0 244#0000000139
(1735409627.222810) vcan0 143#6B6B00C2
(1735409627.222828) vcan0 095#800007F400000035
(1735409627.224462) vcan0 1A4#000000080000002F
(1735409627.224483) vcan0 1AA#7FFF00000000682F
(1735409627.224487) vcan0 1B0#000F0000000166
(1735409627.224492) vcan0 1D0#000000000000000A
(1735409627.228418) vcan0 166#D0320009
(1735409627.232804) vcan0 158#000000000000000A
(1735409627.234995) vcan0 161#000005500108000D
(1735409627.235002) vcan0 191#010090A1410030
(1735409627.235006) vcan0 164#0000C01AA8000031
(1735409627.235010) vcan0 133#0000000098
(1735409627.235014) vcan0 136#000200000000001B
(1735409627.235018) vcan0 039#002A
(1735409627.235022) vcan0 13A#0000000000000019
(1735409627.235026) vcan0 13F#000000050000001F
(1735409627.235031) vcan0 17C#0000000010000012
(1735409627.235035) vcan0 18E#00005C
(1735409627.235039) vcan0 309#0000000000000084
(1735409627.235043) vcan0 183#0000000800001012
(1735409627.235047) vcan0 143#6B6B00D1
(1735409627.235050) vcan0 095#800007F400000008
(1735409627.236824) vcan0 244#00000001D2
(1735409627.239811) vcan0 166#D0320018
(1735409627.239834) vcan0 158#0000000000000019
(1735409627.239839) vcan0 161#000005500108001C
(1735409627.239852) vcan0 191#010090A1410003
(1735409627.239856) vcan0 164#0000C01AA8000004
(1735409627.239861) vcan0 133#00000000A7
(1735409627.239866) vcan0 136#000200000000002A
(1735409627.239870) vcan0 13A#0000000000000028
(1735409627.239874) vcan0 13F#000000050000002E
(1735409627.239877) vcan0 17C#0000000010000021
(1735409627.239882) vcan0 18E#00006B
(1735409627.239887) vcan0 1CF#80050000001E
(1735409627.239892) vcan0 1DC#0200001B
(1735409627.239898) vcan0 183#0000000600001023
(1735409627.243069) vcan0 143#6B6B00E0
(1735409627.243090) vcan0 039#0039
(1735409627.243095) vcan0 095#800007F400000017
(1735409627.246276) vcan0 1A4#000000080000003E
(1735409627.246293) vcan0 1AA#7FFF00000000673F
(1735409627.246297) vcan0 1B0#000F0000000175
(1735409627.246304) vcan0 1D0#000000000000000A
(1735409627.246308) vcan0 166#D0320027
(1735409627.247439) vcan0 244#00000001F2
(1735409627.250162) vcan0 158#0000000000000028
(1735409627.250178) vcan0 161#000005500108002B
(1735409627.250182) vcan0 191#010090A1410012
(1735409627.250186) vcan0 164#0000C01AA8000013
(1735409627.250190) vcan0 133#00000000B6
(1735409627.250194) vcan0 136#0002000000000039
(1735409627.250197) vcan0 13A#0000000000000037
(1735409627.250201) vcan0 13F#000000050000003D
(1735409627.250205) vcan0 17C#0000000010000030
(1735409627.250208) vcan0 18E#00007A
(1735409627.250212) vcan0 294#040B0002CF5A001D
(1735409627.250216) vcan0 21E#03E83745220610
(1735409627.250220) vcan0 183#0000000400001034
(1735409627.252685) vcan0 143#6B6B00FF
(1735409627.253758) vcan0 095#800007F400000026
(1735409627.256458) vcan0 166#D0320036
(1735409627.258029) vcan0 039#000C
(1735409627.258038) vcan0 158#0000000000000037
(1735409627.258042) vcan0 161#000005500108003A
(1735409627.258046) vcan0 164#0000C01AA8000022
(1735409627.258050) vcan0 191#010090A1410021
(1735409627.258053) vcan0 133#0000000089
(1735409627.258057) vcan0 136#000200000000000C
(1735409627.260438) vcan0 13A#000000000000000A
(1735409627.264715) vcan0 244#0000000173
(1735409627.264706) vcan0 13F#0000000500000000
(1735409627.264712) vcan0 17C#0000000010000003
(1735409627.264716) vcan0 18E#00004D
(1735409627.264721) vcan0 1CF#80050000002D
(1735409627.264725) vcan0 1DC#0200002A
