(1735311471.163464) vcan0 158#0000000000000028
(1735311471.167096) vcan0 161#000005500108002B
(1735311471.171979) vcan0 244#00000001FE
(1735311471.173981) vcan0 191#010010A141001A
(1735311471.174010) vcan0 133#00000000B6
(1735311471.174014) vcan0 136#0002000000000039
(1735311471.174018) vcan0 13A#0000000000000037
(1735311471.174022) vcan0 13F#000000050000003D
(1735311471.174026) vcan0 164#0000C01AA8000013
(1735311471.174030) vcan0 17C#0000000010000030
(1735311471.174033) vcan0 18E#00007A
(1735311471.174039) vcan0 294#040B0002CF5A001D
(1735311471.174044) vcan0 21E#03E83745220610
(1735311471.174048) vcan0 183#000000090000103F
(1735311471.174052) vcan0 143#6B6B00FF
(1735311471.174055) vcan0 095#800007F400000026
(1735311471.174059) vcan0 166#D0320036
(1735311471.174062) vcan0 039#0039
(1735311471.174066) vcan0 158#0000000000000037
(1735311471.174069) vcan0 161#000005500108003A
(1735311471.174073) vcan0 191#010010A1410029
(1735311471.174077) vcan0 133#0000000089
(1735311471.174081) vcan0 136#000200000000000C
(1735311471.174084) vcan0 13A#000000000000000A
(1735311471.174088) vcan0 13F#0000000500000000
(1735311471.174091) vcan0 164#0000C01AA9000021
(1735311471.174095) vcan0 17C#0000000010000003
(1735311471.174098) vcan0 18E#00004D
(1735311471.174102) vcan0 1CF#80050000002D
(1735311471.174106) vcan0 1DC#0200002A
(1735311471.174109) vcan0 183#0000000E0000100D
(1735311471.174113) vcan0 143#6B6B00C2
(1735311471.174116) vcan0 333#0000000000003C
(1735311471.179172) vcan0 095#800007F400000035
(1735311471.181433) vcan0 1A4#0000000800000001
(1735311471.181440) vcan0 1AA#7FFF000000006801
(1735311471.181443) vcan0 1B0#000F0000000148
(1735311471.181447) vcan0 1D0#000000000000000A
(1735311471.181450) vcan0 166#D0320009
(1735311471.181454) vcan0 158#000000000000000A
(1735311471.181457) vcan0 161#000005500108000D
(1735311471.181461) vcan0 191#010010A1410038
(1735311471.181464) vcan0 133#0000000098
(1735311471.181468) vcan0 136#000200000000001B
(1735311471.181472) vcan0 13A#0000000000000019
(1735311471.181475) vcan0 13F#000000050000001F
(1735311471.181479) vcan0 164#0000C01AA8000031
(1735311471.181482) vcan0 17C#0000000010000012
(1735311471.181487) vcan0 18E#00005C
(1735311471.181490) vcan0 039#000C
(1735311471.186997) vcan0 183#0000000A00001010
(1735311471.187036) vcan0 143#6B6B00D1
(1735311471.187045) vcan0 095#800007F400000008
(1735311471.190230) vcan0 244#000000010D
(1735311471.193157) vcan0 166#D0320018
(1735311471.199504) vcan0 158#0000000000000019
(1735311471.200944) vcan0 161#000005500108001C
(1735311471.200949) vcan0 191#010010A141000B
(1735311471.200953) vcan0 133#00000000A7
(1735311471.200956) vcan0 136#000200000000002A
(1735311471.200960) vcan0 13A#0000000000000028
(1735311471.200963) vcan0 13F#000000050000002E
(1735311471.200967) vcan0 164#0000C01AA8000004
(1735311471.200970) vcan0 17C#0000000010000021
(1735311471.200974) vcan0 18E#00006B
(1735311471.200978) vcan0 1CF#80050000003C
(1735311471.200981) vcan0 1DC#02000039
(1735311471.200985) vcan0 320#000030
(1735311471.200990) vcan0 324#7465000000000E38
(1735311471.200994) vcan0 37C#FD00FD00097F0038
(1735311471.200997) vcan0 40C#0000000004000013
(1735311471.201001) vcan0 183#0000000F0000102A
(1735311471.201004) vcan0 454#23EF18
(1735311471.201008) vcan0 143#6B6B00E0
(1735311471.201011) vcan0 095#800007F400000017
(1735311471.201015) vcan0 1A4#0000000800000010
(1735311471.201018) vcan0 1AA#7FFF000000006810
(1735311471.201022) vcan0 1B0#000F0000000157
(1735311471.201026) vcan0 1D0#000000000000000A
(1735311471.201029) vcan0 166#D0320027
(1735311471.201033) vcan0 158#0000000000000028
(1735311471.201036) vcan0 161#000005500108002B
(1735311471.201040) vcan0 191#010010A141001A
(1735311471.201043) vcan0 133#00000000B6
(1735311471.201047) vcan0 136#0002000000000039
(1735311471.201050) vcan0 13A#0000000000000037
(1735311471.201054) vcan0 13F#000000050000003D
(1735311471.201057) vcan0 164#0000C01AA9000012
(1735311471.201061) vcan0 17C#0000000010000030
(1735311471.201064) vcan0 18E#00007A
(1735311471.201068) vcan0 294#040B0002CF5A002C
(1735311471.201071) vcan0 039#001B
(1735311471.201076) vcan0 21E#03E8374522062F
(1735311471.204044) vcan0 244#00000001DA
(1735311471.207435) vcan0 183#0000001300001034
(1735311471.208603) vcan0 143#6B6B00FF
(1735311471.208608) vcan0 095#800007F400000026
(1735311471.208612) vcan0 166#D0320036
(1735311471.208616) vcan0 158#0000000000000037
(1735311471.211007) vcan0 161#000005500108003A
(1735311471.212910) vcan0 191#010010A1410029
(1735311471.212919) vcan0 164#0000C01AA8000022
(1735311471.212922) vcan0 133#0000000089
(1735311471.212926) vcan0 136#000200000000000C
(1735311471.212930) vcan0 13A#000000000000000A
(1735311471.212933) vcan0 13F#0000000500000000
(1735311471.212937) vcan0 17C#0000000010000003
(1735311471.212941) vcan0 18E#00004D
(1735311471.212946) vcan0 1CF#80050000000F
(1735311471.212950) vcan0 1DC#0200000C
(1735311471.212953) vcan0 183#0000000E0000100D
(1735311471.212957) vcan0 143#6B6B00C2
(1735311471.215025) vcan0 095#800007F400000035
(1735311471.218181) vcan0 244#00000001EA
(1735311471.222546) vcan0 1A4#000000080000002F
(1735311471.222564) vcan0 1AA#7FFF000000006720
(1735311471.222568) vcan0 1B0#000F0000000166
(1735311471.222571) vcan0 1D0#000000000000000A
(1735311471.222576) vcan0 166#D0320009
(1735311471.222580) vcan0 158#000000000000000A
(1735311471.222584) vcan0 161#000005500108000D
(1735311471.222587) vcan0 191#010010A1410038
(1735311471.222591) vcan0 133#0000000098
(1735311471.222595) vcan0 136#000200000000001B
(1735311471.222599) vcan0 13A#0000000000000019
(1735311471.222602) vcan0 13F#000000050000001F
(1735311471.222606) vcan0 164#0000C01AA8000031
(1735311471.222609) vcan0 17C#0000000010000012
(1735311471.222613) vcan0 18E#00005C
(1735311471.222617) vcan0 309#0000000000000084
(1735311471.222621) vcan0 428#01040000521C2F
(1735311471.222624) vcan0 405#0000040000000029
(1735311471.222628) vcan0 039#002A
(1735311471.222632) vcan0 183#0000001200001017
(1735311471.222636) vcan0 143#6B6B00D1
(1735311471.225703) vcan0 095#800007F400000008
(1735311471.227562) vcan0 166#D0320018
(1735311471.230913) vcan0 158#0000000000000019
(1735311471.232592) vcan0 161#000005500108001C
(1735311471.232599) vcan0 191#010010A141000B
(1735311471.232603) vcan0 164#0000C01AA8000004
(1735311471.232607) vcan0 133#00000000A7
(1735311471.232611) vcan0 136#000200000000002A
(1735311471.232615) vcan0 13A#0000000000000028
(1735311471.232619) vcan0 13F#000000050000002E
(1735311471.232623) vcan0 17C#0000000010000021
(1735311471.232626) vcan0 18E#00006B
(1735311471.232637) vcan0 1CF#80050000001E
(1735311471.232641) vcan0 1DC#0200001B
(1735311471.232645) vcan0 183#0000000D0000102C
(1735311471.232648) vcan0 143#6B6B00E0
(1735311471.233882) vcan0 244#00000001AC
(1735311471.238918) vcan0 095#800007F400000017
(1735311471.240518) vcan0 039#0039
(1735311471.240523) vcan0 1A4#000000080000003E
(1735311471.240527) vcan0 1AA#7FFF00000000683E
(1735311471.240531) vcan0 1B0#000F0000000175
(1735311471.240534) vcan0 1D0#000000000000000A
(1735311471.240538) vcan0 166#D0320027
(1735311471.240541) vcan0 158#0000000000000028
(1735311471.240545) vcan0 161#000005500108002B
(1735311471.240548) vcan0 191#010010A141001A
(1735311471.240552) vcan0 133#00000000B6
(1735311471.240555) vcan0 136#0002000000000039
(1735311471.240559) vcan0 13A#0000000000000037
(1735311471.240562) vcan0 13F#000000050000003D
(1735311471.240567) vcan0 164#0000C01AA8000013
(1735311471.240570) vcan0 17C#0000000010000030
(1735311471.240574) vcan0 18E#00007A
(1735311471.243026) vcan0 294#040B0002CF5A003B
(1735311471.244125) vcan0 21E#03E8374522063E
(1735311471.244130) vcan0 183#000000090000103F
(1735311471.244134) vcan0 143#6B6B00FF
(1735311471.247022) vcan0 095#800007F400000026
(1735311471.249120) vcan0 166#D0320036
(1735311471.249129) vcan0 158#0000000000000037
(1735311471.249132) vcan0 161#000005500108003A
(1735311471.249136) vcan0 191#010010A1410029
(1735311471.249139) vcan0 164#0000C01AA8000022
(1735311471.250888) vcan0 244#00000001A5
(1735311471.253527) vcan0 133#0000000089
(1735311471.255516) vcan0 136#000200000000000C
(1735311471.255526) vcan0 13A#000000000000000A
(1735311471.255529) vcan0 13F#0000000500000000
(1735311471.255533) vcan0 17C#0000000010000003
(1735311471.255536) vcan0 18E#00004D
(1735311471.255540) vcan0 039#000C
(1735311471.255544) vcan0 1CF#80050000002D
(1735311471.255547) vcan0 1DC#0200002A
(1735311471.255551) vcan0 183#0000000E0000100D
(1735311471.255554) vcan0 143#6B6B00C2
(1735311471.255557) vcan0 095#800007F400000035
(1735311471.255561) vcan0 1A4#0000000800000001
(1735311471.255565) vcan0 1AA#7FFF000000006801
(1735311471.258276) vcan0 1B0#000F0000000148
(1735311471.259870) vcan0 1D0#000000000000000A
(1735311471.259878) vcan0 166#D0320009
(1735311471.259881) vcan0 305#8008
(1735311471.259885) vcan0 158#000000000000000A
(1735311471.259888) vcan0 161#000005500108000D
(1735311471.259892) vcan0 191#010010A1410038
(1735311471.259895) vcan0 133#0000000098
(1735311471.259899) vcan0 136#000200000000001B
(1735311471.259903) vcan0 13A#0000000000000019
(1735311471.259906) vcan0 13F#000000050000001F
(1735311471.262519) vcan0 164#0000C01AA8000031
(1735311471.264078) vcan0 17C#0000000010000012
(1735311471.264085) vcan0 18E#00005C
(1735311471.264089) vcan0 183#0000000A00001010
(1735311471.264093) vcan0 143#6B6B00D1
(1735311471.265872) vcan0 244#0000000119
(1735311471.266982) vcan0 095#800007F400000008
(1735311471.267070) vcan0 039#001B
(1735311471.270523) vcan0 166#D0320018
(1735311471.273641) vcan0 158#0000000000000019
(1735311471.276247) vcan0 161#000005500108001C
(1735311471.276255) vcan0 191#010010A141000B
(1735311471.276259) vcan0 133#00000000A7
(1735311471.276263) vcan0 136#000200000000002A
(1735311471.276266) vcan0 13A#0000000000000028
(1735311471.276270) vcan0 13F#000000050000002E
(1735311471.276274) vcan0 164#0000C01AA8000004
(1735311471.276277) vcan0 17C#0000000010000021
(1735311471.276283) vcan0 18E#00006B
(1735311471.276287) vcan0 1CF#80050000003C
(1735311471.276291) vcan0 1DC#02000039
(1735311471.276295) vcan0 183#0000000F0000102A
(1735311471.276298) vcan0 143#6B6B00E0
(1735311471.276302) vcan0 333#0000000000000F
(1735311471.276306) vcan0 095#800007F400000017
(1735311471.276309) vcan0 1A4#0000000800000010
(1735311471.276314) vcan0 1AA#7FFF000000006810
(1735311471.276317) vcan0 1B0#000F0000000157
(1735311471.276321) vcan0 1D0#000000000000000A
(1735311471.280392) vcan0 166#D0320027
(1735311471.280413) vcan0 158#0000000000000028
(1735311471.280417) vcan0 161#000005500108002B
(1735311471.280420) vcan0 191#010010A141001A
(1735311471.280424) vcan0 133#00000000B6
(1735311471.280427) vcan0 136#0002000000000039
(1735311471.280431) vcan0 13A#0000000000000037
(1735311471.280434) vcan0 13F#000000050000003D
(1735311471.280438) vcan0 164#0000C01AA8000013
(1735311471.280441) vcan0 17C#0000000010000030
(1735311471.282234) vcan0 244#0000000127
(1735311471.283847) vcan0 18E#00007A
(1735311471.288080) vcan0 294#040B0002CF5A000E
(1735311471.293347) vcan0 21E#03E83745220601
(1735311471.295619) vcan0 183#0000000B0000103D
(1735311471.295627) vcan0 143#6B6B00FF
(1735311471.295631) vcan0 095#800007F400000026
(1735311471.295635) vcan0 039#002A
(1735311471.295639) vcan0 166#D0320036
(1735311471.295642) vcan0 158#0000000000000037
(1735311471.295646) vcan0 161#000005500108003A
(1735311471.295649) vcan0 191#010010A1410029
(1735311471.295652) vcan0 133#0000000089
(1735311471.295656) vcan0 136#000200000000000C
(1735311471.295660) vcan0 13A#000000000000000A
(1735311471.295663) vcan0 13F#0000000500000000
(1735311471.295667) vcan0 164#0000C01AA8000022
(1735311471.295670) vcan0 17C#0000000010000003
(1735311471.295673) vcan0 18E#00004D
(1735311471.295677) vcan0 1CF#80050000000F
(1735311471.295680) vcan0 1DC#0200000C
(1735311471.295683) vcan0 320#000003
(1735311471.295687) vcan0 324#7465000000000E0B
(1735311471.295690) vcan0 37C#FD00FD00097F000B
(1735311471.295694) vcan0 183#0000000800001003
(1735311471.295697) vcan0 143#6B6B00C2
(1735311471.295700) vcan0 095#800007F400000035
(1735311471.295704) vcan0 1A4#000000080000002F
(1735311471.295707) vcan0 1AA#7FFF000000006720
(1735311471.295711) vcan0 1B0#000F0000000166
(1735311471.296739) vcan0 244#0000000151
(1735311471.299751) vcan0 1D0#000000000000000A
(1735311471.299773) vcan0 166#D0320009
(1735311471.299777) vcan0 039#0039
(1735311471.299781) vcan0 158#000000000000000A
(1735311471.299785) vcan0 161#000005500108000D
(1735311471.299788) vcan0 191#010010A1410038
(1735311471.299792) vcan0 133#0000000098
(1735311471.299796) vcan0 136#000200000000001B
(1735311471.299799) vcan0 13A#0000000000000019
(1735311471.302823) vcan0 13F#000000050000001F
(1735311471.304699) vcan0 164#0000C01AA8000031
(1735311471.304707) vcan0 17C#0000000010000012
(1735311471.304710) vcan0 18E#00005C
(1735311471.304714) vcan0 183#0000000D0000101D
(1735311471.304718) vcan0 143#6B6B00D1
(1735311471.309514) vcan0 095#800007F400000008
(1735311471.311098) vcan0 244#00000001D9
(1735311471.311702) vcan0 166#D0320018
(1735311471.311712) vcan0 158#0000000000000019
(1735311471.311715) vcan0 161#000005500108001C
(1735311471.311719) vcan0 191#010010A141000B
(1735311471.311723) vcan0 164#0000C01AA9000003
(1735311471.311726) vcan0 133#00000000A7
(1735311471.311730) vcan0 136#000200000000002A
(1735311471.311733) vcan0 13A#0000000000000028
(1735311471.311737) vcan0 13F#000000050000002E
(1735311471.311740) vcan0 17C#0000000010000021
(1735311471.311744) vcan0 18E#00006B
(1735311471.311747) vcan0 1CF#80050000001E
(1735311471.311751) vcan0 1DC#0200001B
(1735311471.311754) vcan0 039#000C
(1735311471.311758) vcan0 183#0000000900001020
(1735311471.314946) vcan0 143#6B6B00E0
(1735311471.316881) vcan0 095#800007F400000017
(1735311471.316890) vcan0 1A4#000000080000003E
(1735311471.316894) vcan0 1AA#7FFF00000000683E
(1735311471.316898) vcan0 1B0#000F0000000175
(1735311471.316901) vcan0 1D0#000000000000000A
(1735311471.320738) vcan0 166#D0320027
(1735311471.322672) vcan0 158#0000000000000028
(1735311471.322681) vcan0 161#000005500108002B
(1735311471.322685) vcan0 191#010010A141001A
(1735311471.322689) vcan0 133#00000000B6
(1735311471.322692) vcan0 136#0002000000000039
(1735311471.322696) vcan0 13A#0000000000000037
(1735311471.322700) vcan0 13F#000000050000003D
(1735311471.322703) vcan0 164#0000C01AA8000013
(1735311471.322707) vcan0 17C#0000000010000030
(1735311471.322710) vcan0 18E#00007A
(1735311471.322714) vcan0 294#040B0002CF5A001D
(1735311471.322717) vcan0 21E#03E83745220610
(1735311471.322721) vcan0 309#0000000000000093
(1735311471.322724) vcan0 183#0000000E0000103A
(1735311471.322728) vcan0 143#6B6B00FF
(1735311471.325108) vcan0 095#800007F400000026
(1735311471.326930) vcan0 039#001B
(1735311471.329117) vcan0 166#D0320036
(1735311471.329124) vcan0 158#0000000000000037
(1735311471.329128) vcan0 161#000005500108003A
(1735311471.329131) vcan0 191#010010A1410029
(1735311471.329135) vcan0 133#0000000089
(1735311471.330274) vcan0 244#0000000109
(1735311471.331474) vcan0 136#000200000000000C
(1735311471.333460) vcan0 13A#000000000000000A
(1735311471.333466) vcan0 13F#0000000500000000
(1735311471.333470) vcan0 164#0000C01AA8000022
(1735311471.333473) vcan0 17C#0000000010000003
(1735311471.333477) vcan0 18E#00004D
(1735311471.333480) vcan0 1CF#80050000002D
(1735311471.333492) vcan0 1DC#0200002A
(1735311471.333495) vcan0 183#0000000A00001001
(1735311471.333501) vcan0 143#6B6B00C2
(1735311471.342018) vcan0 095#800007F400000035
(1735311471.345005) vcan0 244#00000001A7
(1735311471.345468) vcan0 1A4#0000000800000001
(1735311471.347665) vcan0 1AA#7FFF000000006801
(1735311471.347673) vcan0 1B0#000F0000000148
(1735311471.347677) vcan0 1D0#000000000000000A
(1735311471.347680) vcan0 166#D0320009
(1735311471.347684) vcan0 158#000000000000000A
(1735311471.347688) vcan0 161#000005500108000D
(1735311471.347692) vcan0 191#010010A1410038
(1735311471.347698) vcan0 133#0000000098
(1735311471.347702) vcan0 136#000200000000001B
(1735311471.347705) vcan0 13A#0000000000000019
(1735311471.347709) vcan0 13F#000000050000001F
(1735311471.347712) vcan0 164#0000C01AA8000031
(1735311471.347716) vcan0 17C#0000000010000012
(1735311471.347719) vcan0 18E#00005C
(1735311471.347723) vcan0 039#002A
(1735311471.347727) vcan0 183#0000000700001013
(1735311471.347730) vcan0 143#6B6B00D1
(1735311471.347734) vcan0 095#800007F400000008
(1735311471.347738) vcan0 166#D0320018
(1735311471.350412) vcan0 158#0000000000000019
(1735311471.352120) vcan0 161#000005500108001C
(1735311471.352128) vcan0 191#010010A141000B
(1735311471.352132) vcan0 164#0000C01AA8000004
(1735311471.352136) vcan0 133#00000000A7
(1735311471.352139) vcan0 136#000200000000002A
(1735311471.352143) vcan0 13A#0000000000000028
(1735311471.352146) vcan0 13F#000000050000002E
(1735311471.352150) vcan0 17C#0000000010000021
(1735311471.352153) vcan0 18E#00006B
(1735311471.352157) vcan0 1CF#80050000003C
(1735311471.352160) vcan0 1DC#02000039
(1735311471.352164) vcan0 183#0000000D0000102C
(1735311471.355917) vcan0 143#6B6B00E0
(1735311471.355940) vcan0 095#800007F400000017
(1735311471.355944) vcan0 039#0039
(1735311471.355948) vcan0 1A4#0000000800000010
(1735311471.355951) vcan0 1AA#7FFF000000006810
(1735311471.355955) vcan0 1B0#000F0000000157
(1735311471.358257) vcan0 244#0000000121
(1735311471.360258) vcan0 1D0#000000000000000A
(1735311471.360274) vcan0 166#D0320027
(1735311471.360278) vcan0 158#0000000000000028
(1735311471.360282) vcan0 161#000005500108002B
(1735311471.360285) vcan0 191#010010A141001A
(1735311471.360289) vcan0 133#00000000B6
(1735311471.360292) vcan0 136#0002000000000039
(1735311471.360296) vcan0 13A#0000000000000037
(1735311471.360299) vcan0 13F#000000050000003D
(1735311471.360303) vcan0 164#0000C01AA8000013
(1735311471.361996) vcan0 17C#0000000010000030
(1735311471.362015) vcan0 18E#00007A
(1735311471.362020) vcan0 294#040B0002CF5A002C
(1735311471.362024) vcan0 21E#03E8374522062F
(1735311471.362028) vcan0 305#8017
(1735311471.366773) vcan0 183#000000090000103F
(1735311471.366795) vcan0 143#6B6B00FF
(1735311471.366799) vcan0 095#800007F400000026
(1735311471.369788) vcan0 166#D0320036
(1735311471.369806) vcan0 158#0000000000000037
(1735311471.369810) vcan0 161#000005500108003A
(1735311471.369814) vcan0 191#010010A1410029
(1735311471.369817) vcan0 039#000C
(1735311471.369821) vcan0 133#0000000089
(1735311471.369824) vcan0 136#000200000000000C
(1735311471.369828) vcan0 13A#000000000000000A
(1735311471.372717) vcan0 13F#0000000500000000
(1735311471.374765) vcan0 164#0000C01AA8000022
(1735311471.375628) vcan0 244#0000000171
(1735311471.379707) vcan0 17C#0000000010000003
(1735311471.384748) vcan0 18E#00004D
(1735311471.384756) vcan0 1CF#80050000000F
(1735311471.384760) vcan0 1DC#0200000C
(1735311471.384764) vcan0 183#0000000600001005
(1735311471.384767) vcan0 143#6B6B00C2
(1735311471.384771) vcan0 333#0000000000001E
(1735311471.384774) vcan0 095#800007F400000035
(1735311471.384778) vcan0 1A4#000000080000002F
(1735311471.384781) vcan0 1AA#7FFF000000006720
(1735311471.384785) vcan0 1B0#000F0000000166
(1735311471.384788) vcan0 1D0#000000000000000A
(1735311471.384792) vcan0 166#D0320009
(1735311471.384796) vcan0 158#000000000000000A
(1735311471.384800) vcan0 161#000005500108000D
(1735311471.384803) vcan0 191#010010A1410038
(1735311471.384807) vcan0 133#0000000098
(1735311471.384810) vcan0 136#000200000000001B
(1735311471.384813) vcan0 13A#0000000000000019
(1735311471.384817) vcan0 13F#000000050000001F
(1735311471.384822) vcan0 164#0000C01AA8000031
(1735311471.384826) vcan0 17C#0000000010000012
(1735311471.384829) vcan0 18E#00005C
(1735311471.384841) vcan0 183#0000000C0000101E
(1735311471.384844) vcan0 143#6B6B00D1
(1735311471.388048) vcan0 095#800007F400000008
(1735311471.391235) vcan0 166#D0320018
(1735311471.391243) vcan0 158#0000000000000019
(1735311471.391247) vcan0 161#000005500108001C
(1735311471.391250) vcan0 191#010090A1410003
(1735311471.391254) vcan0 039#001B
(1735311471.391257) vcan0 133#00000000A7
(1735311471.391261) vcan0 136#000200000000002A
(1735311471.391265) vcan0 13A#0000000000000028
(1735311471.391269) vcan0 13F#000000050000002E
(1735311471.391272) vcan0 164#0000C01AA8000004
(1735311471.391276) vcan0 17C#0000000010000021
(1735311471.391279) vcan0 18E#00006B
(1735311471.391282) vcan0 1CF#80050000001E
(1735311471.391286) vcan0 1DC#0200001B
(1735311471.391290) vcan0 320#000012
(1735311471.393350) vcan0 244#0000000160
(1735311471.396661) vcan0 324#7465000000000E1A
(1735311471.398559) vcan0 37C#FD00FD00097F001A
(1735311471.398567) vcan0 183#0000000900001020
(1735311471.398570) vcan0 143#6B6B00E0
(1735311471.398574) vcan0 095#800007F400000017
(1735311471.398578) vcan0 1A4#000000080000003E
(1735311471.398583) vcan0 1AA#7FFF00000000683E
(1735311471.398586) vcan0 1B0#000F0000000175
(1735311471.398590) vcan0 1D0#000000000000000A
(1735311471.398593) vcan0 166#D0320027
(1735311471.398597) vcan0 158#0000000000000028
(1735311471.404188) vcan0 161#000005500108002B
(1735311471.404206) vcan0 191#010090A1410012
(1735311471.404210) vcan0 133#00000000B6
(1735311471.404214) vcan0 136#0002000000000039
(1735311471.404218) vcan0 13A#0000000000000037
(1735311471.404222) vcan0 13F#000000050000003D
(1735311471.404226) vcan0 164#0000C01AA8000013
(1735311471.404229) vcan0 17C#0000000010000030
(1735311471.404233) vcan0 18E#00007A
(1735311471.404237) vcan0 294#040B0002CF5A003B
(1735311471.404240) vcan0 21E#03E8374522063E
(1735311471.404244) vcan0 039#002A
(1735311471.404247) vcan0 183#0000000E0000103A
(1735311471.404251) vcan0 143#6B6B00FF
(1735311471.407092) vcan0 095#800007F400000026
(1735311471.409132) vcan0 244#0000000193
(1735311471.409154) vcan0 166#D0320036
(1735311471.409158) vcan0 158#0000000000000037
(1735311471.409161) vcan0 161#000005500108003A
(1735311471.409166) vcan0 191#010090A1410021
(1735311471.409170) vcan0 133#0000000089
(1735311471.411286) vcan0 136#000200000000000C
(1735311471.416905) vcan0 13A#000000000000000A
(1735311471.418449) vcan0 13F#0000000500000000
(1735311471.418461) vcan0 164#0000C01AA8000022
(1735311471.418469) vcan0 17C#0000000010000003
(1735311471.418477) vcan0 18E#00004D
(1735311471.418486) vcan0 1CF#80050000002D
(1735311471.418493) vcan0 1DC#0200002A
(1735311471.418501) vcan0 183#0000000A00001001
(1735311471.418509) vcan0 143#6B6B00C2
(1735311471.418516) vcan0 095#800007F400000035
(1735311471.418524) vcan0 1A4#0000000800000001
(1735311471.418533) vcan0 1AA#7FFF000000006801
(1735311471.418541) vcan0 1B0#000F0000000148
(1735311471.418549) vcan0 1D0#000000000000000A
(1735311471.418556) vcan0 039#0039
(1735311471.418564) vcan0 166#D0320009
(1735311471.418571) vcan0 158#000000000000000A
(1735311471.421987) vcan0 161#000005500108000D
(1735311471.425687) vcan0 244#0000000166
(1735311471.426615) vcan0 191#010090A1410030
(1735311471.427019) vcan0 133#0000000098
(1735311471.427024) vcan0 136#000200000000001B
(1735311471.427027) vcan0 13A#0000000000000019
(1735311471.427031) vcan0 13F#000000050000001F
(1735311471.427035) vcan0 164#0000C01AA8000031
(1735311471.427039) vcan0 17C#0000000010000012
(1735311471.427042) vcan0 18E#00005C
(1735311471.427046) vcan0 309#00000000000000A2
(1735311471.427050) vcan0 183#0000000F0000101B
(1735311471.427053) vcan0 143#6B6B00D1
(1735311471.427056) vcan0 095#800007F400000008
(1735311471.431931) vcan0 166#D0320018
(1735311471.433934) vcan0 158#0000000000000019
(1735311471.433940) vcan0 161#000005500108001C
(1735311471.433944) vcan0 191#010090A1410003
(1735311471.433948) vcan0 164#0000C01AA8000004
(1735311471.433951) vcan0 133#00000000A7
(1735311471.433955) vcan0 136#000200000000002A
(1735311471.433958) vcan0 13A#0000000000000028
(1735311471.433962) vcan0 13F#000000050000002E
(1735311471.433966) vcan0 17C#0000000010000021
(1735311471.433970) vcan0 18E#00006B
(1735311471.433974) vcan0 039#000C
(1735311471.433978) vcan0 1CF#80050000003C
(1735311471.433982) vcan0 1DC#02000039
(1735311471.433986) vcan0 183#0000000B0000102E
(1735311471.433998) vcan0 143#6B6B00E0
(1735311471.437561) vcan0 095#800007F400000017
(1735311471.439784) vcan0 1A4#0000000800000010
(1735311471.439790) vcan0 1AA#7FFF000000006810
(1735311471.439795) vcan0 1B0#000F0000000157
(1735311471.439799) vcan0 1D0#000000000000000A
(1735311471.439803) vcan0 166#D0320027
(1735311471.439807) vcan0 158#0000000000000028
(1735311471.439811) vcan0 161#000005500108002B
(1735311471.439814) vcan0 191#010090A1410012
(1735311471.439817) vcan0 133#00000000B6
(1735311471.439821) vcan0 136#0002000000000039
(1735311471.439824) vcan0 13A#0000000000000037
(1735311471.439828) vcan0 13F#000000050000003D
(1735311471.441478) vcan0 164#0000C01AA8000013
(1735311471.442819) vcan0 244#000000017B
(1735311471.443519) vcan0 17C#0000000010000030
(1735311471.443524) vcan0 18E#00007A
(1735311471.443528) vcan0 294#040B0002CF5A000E
(1735311471.443532) vcan0 21E#03E83745220601
(1735311471.443535) vcan0 183#0000000800001030
(1735311471.443539) vcan0 143#6B6B00FF
(1735311471.446982) vcan0 039#001B
(1735311471.447007) vcan0 095#800007F400000026
(1735311471.450065) vcan0 166#D0320036
(1735311471.451952) vcan0 158#0000000000000037
(1735311471.454623) vcan0 161#000005500108003A
(1735311471.456157) vcan0 191#010090A1410021
(1735311471.456164) vcan0 133#0000000089
(1735311471.456167) vcan0 136#000200000000000C
(1735311471.456171) vcan0 13A#000000000000000A
(1735311471.456175) vcan0 13F#0000000500000000
(1735311471.456178) vcan0 164#0000C01AA8000022
(1735311471.456182) vcan0 17C#0000000010000003
(1735311471.456185) vcan0 18E#00004D
(1735311471.456189) vcan0 1CF#80050000000F
(1735311471.456192) vcan0 1DC#0200000C
(1735311471.456196) vcan0 183#0000000600001005
(1735311471.456199) vcan0 143#6B6B00C2
(1735311471.456203) vcan0 095#800007F400000035
(1735311471.456206) vcan0 1A4#000000080000002F
(1735311471.456209) vcan0 1AA#7FFF000000006720
(1735311471.456213) vcan0 1B0#000F0000000166
(1735311471.456216) vcan0 1D0#000000000000000A
(1735311471.458427) vcan0 166#D0320009
(1735311471.458453) vcan0 158#000000000000000A
(1735311471.462571) vcan0 244#000000014A
(1735311471.462645) vcan0 161#000005500108000D
(1735311471.462657) vcan0 191#010090A1410030
(1735311471.462660) vcan0 133#0000000098
(1735311471.462664) vcan0 136#000200000000001B
(1735311471.462668) vcan0 039#002A
(1735311471.462671) vcan0 13A#0000000000000019
(1735311471.462675) vcan0 13F#000000050000001F
(1735311471.462678) vcan0 164#0000C01AA8000031
(1735311471.462682) vcan0 17C#0000000010000012
(1735311471.462685) vcan0 18E#00005C
(1735311471.462688) vcan0 183#0000000400001016
(1735311471.462692) vcan0 143#6B6B00D1
(1735311471.466265) vcan0 095#800007F400000008
(1735311471.468035) vcan0 305#8026
(1735311471.468040) vcan0 166#D0320018
(1735311471.471501) vcan0 158#0000000000000019
(1735311471.471519) vcan0 161#000005500108001C
(1735311471.471523) vcan0 191#010090A1410003
(1735311471.471526) vcan0 133#00000000A7
(1735311471.471530) vcan0 136#000200000000002A
(1735311471.471534) vcan0 13A#0000000000000028
(1735311471.471537) vcan0 13F#000000050000002E
(1735311471.471541) vcan0 164#0000C01AA8000004
(1735311471.471544) vcan0 17C#0000000010000021
(1735311471.471548) vcan0 18E#00006B
(1735311471.471552) vcan0 1CF#80050000001E
(1735311471.471555) vcan0 1DC#0200001B
(1735311471.473608) vcan0 183#0000000300001026
(1735311471.475163) vcan0 143#6B6B00E0
(1735311471.475170) vcan0 039#0039
(1735311471.475174) vcan0 333#0000000000002D
(1735311471.475177) vcan0 095#800007F400000017
(1735311471.478187) vcan0 1A4#000000080000003E
(1735311471.479881) vcan0 1AA#7FFF00000000683E
(1735311471.479886) vcan0 1B0#000F0000000175
(1735311471.479890) vcan0 1D0#000000000000000A
(1735311471.479894) vcan0 166#D0320027
(1735311471.479898) vcan0 158#0000000000000028
(1735311471.479901) vcan0 161#000005500108002B
(1735311471.479905) vcan0 191#010090A1410012
(1735311471.479908) vcan0 133#00000000B6
(1735311471.479912) vcan0 136#0002000000000039
(1735311471.479915) vcan0 13A#0000000000000037
(1735311471.479919) vcan0 13F#000000050000003D
(1735311471.480750) vcan0 244#00000001CD
(1735311471.484833) vcan0 164#0000C01AA8000013
(1735311471.487444) vcan0 17C#0000000010000030
(1735311471.487454) vcan0 18E#00007A
(1735311471.487459) vcan0 294#040B0002CF5A001D
(1735311471.487462) vcan0 21E#03E83745220610
(1735311471.487466) vcan0 183#0000000A0000103E
(1735311471.487478) vcan0 143#6B6B00FF
(1735311471.487482) vcan0 095#800007F400000026
(1735311471.487485) vcan0 166#D0320036
(1735311471.489582) vcan0 158#0000000000000037
(1735311471.493077) vcan0 161#000005500108003A
(1735311471.494626) vcan0 191#010090A1410021
(1735311471.494634) vcan0 133#0000000089
(1735311471.494638) vcan0 136#000200000000000C
(1735311471.494642) vcan0 13A#000000000000000A
(1735311471.494645) vcan0 13F#0000000500000000
(1735311471.494649) vcan0 164#0000C01AA8000022
(1735311471.494652) vcan0 17C#0000000010000003
(1735311471.494656) vcan0 18E#00004D
(1735311471.494660) vcan0 1CF#80050000002D
(1735311471.494663) vcan0 1DC#0200002A
(1735311471.494666) vcan0 320#000021
(1735311471.494670) vcan0 324#7465000000000E29
(1735311471.494673) vcan0 37C#FD00FD00097F0029
(1735311471.494677) vcan0 40C#014A484D46413325
(1735311471.494680) vcan0 183#0000000700001004
(1735311471.494684) vcan0 454#23EF27
(1735311471.494689) vcan0 143#6B6B00C2
(1735311471.496893) vcan0 244#00000001C2
(1735311471.498133) vcan0 095#800007F400000035
(1735311471.498162) vcan0 039#000C
(1735311471.498170) vcan0 1A4#0000000800000001
(1735311471.498173) vcan0 1AA#7FFF000000006801
(1735311471.498177) vcan0 1B0#000F0000000148
(1735311471.498181) vcan0 1D0#000000000000000A
(1735311471.498184) vcan0 166#D0320009
(1735311471.504045) vcan0 158#000000000000000A
(1735311471.506722) vcan0 161#000005500108000D
(1735311471.506730) vcan0 191#010090A1410030
(1735311471.506734) vcan0 133#0000000098
(1735311471.506738) vcan0 136#000200000000001B
(1735311471.506741) vcan0 13A#0000000000000019
(1735311471.506745) vcan0 13F#000000050000001F
(1735311471.506748) vcan0 164#0000C01AA8000031
(1735311471.506752) vcan0 17C#0000000010000012
(1735311471.506755) vcan0 18E#00005C
(1735311471.506759) vcan0 183#0000000D0000101D
(1735311471.506763) vcan0 143#6B6B00D1
(1735311471.506766) vcan0 095#800007F400000008
(1735311471.507757) vcan0 244#00000001EE
(1735311471.509883) vcan0 166#D0320018
(1735311471.513796) vcan0 158#0000000000000019
(1735311471.513805) vcan0 161#000005500108001C
(1735311471.513809) vcan0 191#010090A1410003
(1735311471.513813) vcan0 133#00000000A7
(1735311471.513816) vcan0 136#000200000000002A
(1735311471.513820) vcan0 13A#0000000000000028
(1735311471.513823) vcan0 13F#000000050000002E
(1735311471.513826) vcan0 164#0000C01AA8000004
(1735311471.513830) vcan0 17C#0000000010000021
(1735311471.513834) vcan0 18E#00006B
(1735311471.513837) vcan0 1CF#80050000003C
(1735311471.513840) vcan0 1DC#02000039
(1735311471.513844) vcan0 183#0000001100001027
(1735311471.513847) vcan0 143#6B6B00E0
(1735311471.520721) vcan0 039#001B
(1735311471.521159) vcan0 244#000000016E
(1735311471.525398) vcan0 095#800007F400000017
(1735311471.527142) vcan0 1A4#0000000800000010
(1735311471.527149) vcan0 1AA#7FFF000000006810
(1735311471.527153) vcan0 1B0#000F0000000157
(1735311471.527156) vcan0 1D0#000000000000000A
(1735311471.527160) vcan0 166#D0320027
(1735311471.527165) vcan0 158#0000000000000028
(1735311471.527168) vcan0 161#000005500108002B
(1735311471.527172) vcan0 191#010090A1410012
(1735311471.527919) vcan0 133#00000000B6
(1735311471.529854) vcan0 188#00000000
(1735311471.531002) vcan0 136#0002000000000039
(1735311471.531007) vcan0 13A#0000000000000037
(1735311471.531011) vcan0 13F#000000050000003D
(1735311471.531015) vcan0 164#0000C01AA8000013
(1735311471.531019) vcan0 17C#0000000010000030
(1735311471.531022) vcan0 18E#00007A
(1735311471.531026) vcan0 294#040B0002CF5A002C
(1735311471.531029) vcan0 21E#03E8374522062F
(1735311471.531033) vcan0 309#00000000000000B1
(1735311471.531037) vcan0 428#01040000521C3E
(1735311471.531041) vcan0 405#0000040000000038
(1735311471.531063) vcan0 183#0000000C0000103C
(1735311471.531070) vcan0 143#6B6B00FF
(1735311471.531074) vcan0 095#800007F400000026
(1735311471.531079) vcan0 166#D0320036
(1735311471.531082) vcan0 039#002A
(1735311471.531086) vcan0 158#0000000000000037
(1735311471.531089) vcan0 161#000005500108003A
(1735311471.531094) vcan0 191#010090A1410021
(1735311471.531097) vcan0 133#0000000089
(1735311471.531101) vcan0 136#000200000000000C
(1735311471.531105) vcan0 13A#000000000000000A
(1735311471.531109) vcan0 13F#0000000500000000
(1735311471.531114) vcan0 164#0000C01AA8000022
(1735311471.531117) vcan0 17C#0000000010000003
(1735311471.531121) vcan0 18E#00004D
(1735311471.531124) vcan0 1CF#80050000000F
(1735311471.531135) vcan0 1DC#0200000C
(1735311471.533503) vcan0 183#000000100000100A
(1735311471.535171) vcan0 143#6B6B00C2
(1735311471.536692) vcan0 095#800007F400000035
(1735311471.536701) vcan0 1A4#000000080000002F
(1735311471.536705) vcan0 1AA#7FFF000000006720
(1735311471.536708) vcan0 1B0#000F0000000166
(1735311471.536712) vcan0 1D0#000000000000000A
(1735311471.539578) vcan0 166#D0320009
(1735311471.539602) vcan0 158#000000000000000A
(1735311471.539605) vcan0 161#000005500108000D
(1735311471.539609) vcan0 191#010090A1410030
(1735311471.539613) vcan0 133#0000000098
(1735311471.539617) vcan0 136#000200000000001B
(1735311471.539620) vcan0 13A#0000000000000019
(1735311471.542161) vcan0 244#00000001D2
(1735311471.543001) vcan0 13F#000000050000001F
(1735311471.543014) vcan0 164#0000C01AA9000030
(1735311471.543018) vcan0 17C#0000000010000012
(1735311471.543022) vcan0 18E#00005C
(1735311471.543025) vcan0 039#0039
(1735311471.543029) vcan0 183#0000000C0000101E
(1735311471.543033) vcan0 143#6B6B00D1
(1735311471.545323) vcan0 095#800007F400000008
(1735311471.548077) vcan0 166#D0320018
(1735311471.550177) vcan0 158#0000000000000019
(1735311471.550188) vcan0 161#000005500108001C
(1735311471.550192) vcan0 191#010090A1410003
(1735311471.550196) vcan0 133#00000000A7
(1735311471.550199) vcan0 136#000200000000002A
(1735311471.550203) vcan0 13A#0000000000000028
(1735311471.550206) vcan0 13F#000000050000002E
(1735311471.550210) vcan0 164#0000C01AA8000004
(1735311471.553684) vcan0 17C#0000000010000021
(1735311471.553701) vcan0 18E#00006B
(1735311471.553705) vcan0 1CF#80050000001E
(1735311471.553708) vcan0 1DC#0200001B
(1735311471.553712) vcan0 183#0000001000001028
(1735311471.553716) vcan0 143#6B6B00E0
(1735311471.555071) vcan0 095#800007F400000017
(1735311471.556576) vcan0 244#00000001D3
(1735311471.557115) vcan0 1A4#000000080000003E
(1735311471.557123) vcan0 1AA#7FFF00000000683E
(1735311471.557127) vcan0 1B0#000F0000000175
(1735311471.557130) vcan0 1D0#000000000000000A
(1735311471.557134) vcan0 039#000C
(1735311471.561528) vcan0 166#D0320027
(1735311471.563805) vcan0 158#0000000000000028
(1735311471.564742) vcan0 161#000005500108002B
(1735311471.564747) vcan0 191#010090A1410012
(1735311471.564751) vcan0 133#00000000B6
(1735311471.564755) vcan0 136#0002000000000039
(1735311471.564759) vcan0 13A#0000000000000037
(1735311471.564762) vcan0 13F#000000050000003D
(1735311471.564766) vcan0 164#0000C01AA8000013
(1735311471.564769) vcan0 17C#0000000010000030
(1735311471.564773) vcan0 18E#00007A
(1735311471.564778) vcan0 294#040B0002CF5A003B
(1735311471.564781) vcan0 21E#03E8374522063E
(1735311471.564785) vcan0 183#0000001300001034
(1735311471.564788) vcan0 143#6B6B00FF
(1735311471.564792) vcan0 095#800007F800000022
(1735311471.570026) vcan0 166#D0320036
(1735311471.572131) vcan0 158#0000000000000037
(1735311471.572140) vcan0 161#000005500108003A
(1735311471.572143) vcan0 191#010090A1410021
(1735311471.572147) vcan0 133#0000000089
(1735311471.572150) vcan0 136#000200000000000C
(1735311471.572154) vcan0 13A#000000000000000A
(1735311471.572158) vcan0 13F#0000000500000000
(1735311471.572161) vcan0 164#0000C01AA8000022
(1735311471.572165) vcan0 17C#0000000010000003
(1735311471.572168) vcan0 18E#00004D
(1735311471.572173) vcan0 1CF#80050000002D
(1735311471.572176) vcan0 1DC#0200002A
(1735311471.572180) vcan0 305#8035
(1735311471.572184) vcan0 183#0000000E0000100D
(1735311471.573945) vcan0 244#0000000151
(1735311471.574185) vcan0 143#6B6B00C2
(1735311471.574198) vcan0 333#0000000000003C
(1735311471.576610) vcan0 095#800007F800000031
(1735311471.578940) vcan0 1A4#0000000800000001
(1735311471.578947) vcan0 1AA#7FFF000000006801
(1735311471.578952) vcan0 1B0#000F0000000148
(1735311471.578955) vcan0 1D0#000000000000000A
(1735311471.578959) vcan0 039#001B
(1735311471.578962) vcan0 166#D0320009
(1735311471.578966) vcan0 158#000000000000000A
(1735311471.578970) vcan0 161#000005500108000D
(1735311471.578973) vcan0 191#010090A1410030
(1735311471.582129) vcan0 133#0000000098
(1735311471.584200) vcan0 136#000200000000001B
(1735311471.584208) vcan0 13A#0000000000000019
(1735311471.584211) vcan0 13F#000000050000001F
(1735311471.584215) vcan0 164#0000C01AA8000031
(1735311471.584219) vcan0 17C#0000000010000012
(1735311471.584222) vcan0 18E#00005C
(1735311471.584233) vcan0 183#0000000A00001010
(1735311471.584236) vcan0 143#6B6B00D1
(1735311471.591140) vcan0 244#0000000189
(1735311471.591966) vcan0 095#800007F800000004
(1735311471.592263) vcan0 166#D0320018
(1735311471.592267) vcan0 158#0000000000000019
(1735311471.592270) vcan0 161#000005500108001C
(1735311471.592274) vcan0 191#010090A1410003
(1735311471.592278) vcan0 133#00000000A7
(1735311471.592281) vcan0 136#000200000000002A
(1735311471.592285) vcan0 13A#0000000000000028
(1735311471.592290) vcan0 13F#000000050000002E
(1735311471.592293) vcan0 164#0000C01AA8000004
(1735311471.592297) vcan0 039#002A
(1735311471.592300) vcan0 17C#0000000010000021
(1735311471.592304) vcan0 18E#00006B
(1735311471.592307) vcan0 1CF#80050000003C
(1735311471.592311) vcan0 1DC#02000039
(1735311471.592314) vcan0 320#000030
(1735311471.592318) vcan0 324#7465000000000E38
(1735311471.592321) vcan0 37C#FD00FD00097F0038
(1735311471.592325) vcan0 183#0000000700001022
(1735311471.593916) vcan0 143#6B6B00E0
(1735311471.596276) vcan0 095#800007F800000013
(1735311471.596285) vcan0 1A4#0000000800000010
(1735311471.596289) vcan0 1AA#7FFF000000006810
(1735311471.596292) vcan0 1B0#000F0000000157
(1735311471.598564) vcan0 1D0#000000000000000A
(1735311471.600622) vcan0 166#D0320027
(1735311471.600628) vcan0 158#0000000000000028
(1735311471.600632) vcan0 161#000005500108002B
(1735311471.600635) vcan0 191#010090A1410012
(1735311471.600639) vcan0 133#00000000B6
(1735311471.600644) vcan0 136#0002000000000039
(1735311471.600648) vcan0 13A#0000000000000037
(1735311471.600651) vcan0 13F#000000050000003D
(1735311471.600655) vcan0 164#0000C01AA8000013
(1735311471.600658) vcan0 17C#0000000010000030
(1735311471.600663) vcan0 18E#00007A
(1735311471.604988) vcan0 294#040B0002CF5A000E
(1735311471.607391) vcan0 244#000000017E
(1735311471.608060) vcan0 21E#03E83745220601
(1735311471.608066) vcan0 183#0000000500001033
(1735311471.608070) vcan0 143#6B6B00FF
(1735311471.608074) vcan0 039#0039
(1735311471.608077) vcan0 095#800007F800000022
(1735311471.608081) vcan0 166#D0320036
(1735311471.610420) vcan0 158#0000000000000037
(1735311471.612357) vcan0 161#000005500108003A
(1735311471.613215) vcan0 191#010090A1410021
(1735311471.613220) vcan0 164#0000C01AA8000022
(1735311471.613223) vcan0 133#0000000089
(1735311471.613227) vcan0 136#000200000000000C
(1735311471.613231) vcan0 13A#000000000000000A
(1735311471.613234) vcan0 13F#0000000500000000
(1735311471.613238) vcan0 17C#0000000010000003
(1735311471.613241) vcan0 18E#00004D
(1735311471.613246) vcan0 1CF#80050000000F
(1735311471.613251) vcan0 1DC#0200000C
(1735311471.613255) vcan0 183#0000000B00001000
(1735311471.613258) vcan0 143#6B6B00C2
(1735311471.615650) vcan0 095#800007F800000031
(1735311471.619524) vcan0 1A4#000000080000002F
(1735311471.620716) vcan0 244#000000013D
(1735311471.621452) vcan0 1AA#7FFF000000006720
(1735311471.621460) vcan0 1B0#000F0000000166
(1735311471.621463) vcan0 1D0#000000000000000A
(1735311471.621467) vcan0 166#D0320009
(1735311471.621471) vcan0 158#000000000000000A
(1735311471.621474) vcan0 161#000005500108000D
(1735311471.621478) vcan0 191#010090A1410030
(1735311471.621482) vcan0 039#000C
(1735311471.621487) vcan0 133#0000000098
(1735311471.621491) vcan0 136#000200000000001B
(1735311471.621494) vcan0 13A#0000000000000019
(1735311471.621498) vcan0 13F#000000050000001F
(1735311471.621501) vcan0 164#0000C01AA8000031
(1735311471.621504) vcan0 17C#0000000010000012
(1735311471.621508) vcan0 18E#00005C
(1735311471.621511) vcan0 309#0000000000000084
(1735311471.623932) vcan0 183#0000000800001012
(1735311471.625493) vcan0 143#6B6B00D1
(1735311471.626315) vcan0 095#800007F800000004
(1735311471.630769) vcan0 166#D0320018
(1735311471.632593) vcan0 158#0000000000000019
(1735311471.632599) vcan0 161#000005500108001C
(1735311471.632603) vcan0 191#010090A1410003
(1735311471.632606) vcan0 133#00000000A7
(1735311471.632610) vcan0 136#000200000000002A
(1735311471.632613) vcan0 13A#0000000000000028
(1735311471.632617) vcan0 13F#000000050000002E
(1735311471.632620) vcan0 164#0000C01AA8000004
(1735311471.632624) vcan0 17C#0000000010000021
(1735311471.632627) vcan0 18E#00006B
(1735311471.632630) vcan0 1CF#80050000001E
(1735311471.632634) vcan0 1DC#0200001B
(1735311471.632637) vcan0 183#0000000D0000102C
(1735311471.632641) vcan0 143#6B6B00E0
(1735311471.638307) vcan0 039#001B
(1735311471.638345) vcan0 095#800007F800000013
(1735311471.638349) vcan0 1A4#000000080000003E
(1735311471.638353) vcan0 1AA#7FFF00000000683E
(1735311471.638357) vcan0 1B0#000F0000000175
(1735311471.638362) vcan0 1D0#000000000000000A
(1735311471.638366) vcan0 166#D0320027
(1735311471.638906) vcan0 244#000000010B
(1735311471.641466) vcan0 158#0000000000000028
(1735311471.642800) vcan0 161#000005500108002B
(1735311471.643636) vcan0 191#010090A1410012
(1735311471.643641) vcan0 133#00000000B6
(1735311471.643645) vcan0 136#0002000000000039
(1735311471.643649) vcan0 13A#0000000000000037
(1735311471.643652) vcan0 13F#000000050000003D
(1735311471.643655) vcan0 164#0000C01AA8000013
(1735311471.643659) vcan0 17C#0000000010000030
(1735311471.643662) vcan0 18E#00007A
(1735311471.643666) vcan0 294#040B0002CF5A001D
(1735311471.643669) vcan0 21E#03E83745220610
(1735311471.643673) vcan0 183#000000090000103F
(1735311471.643676) vcan0 143#6B6B00FF
(1735311471.646122) vcan0 095#800007F800000022
(1735311471.647584) vcan0 166#D0320036
(1735311471.650739) vcan0 039#002A
(1735311471.652687) vcan0 158#0000000000000037
(1735311471.652694) vcan0 161#000005500108003A
(1735311471.652697) vcan0 191#010090A1410021
(1735311471.652701) vcan0 164#0000C01AA8000022
(1735311471.652705) vcan0 133#0000000089
(1735311471.652708) vcan0 136#000200000000000C
(1735311471.652712) vcan0 13A#000000000000000A
(1735311471.652716) vcan0 13F#0000000500000000
(1735311471.652722) vcan0 17C#0000000010000003
(1735311471.652726) vcan0 18E#00004D
(1735311471.652729) vcan0 1CF#80050000002D
(1735311471.652733) vcan0 1DC#0200002A
(1735311471.652736) vcan0 183#0000000600001005
(1735311471.652740) vcan0 143#6B6B00C2
(1735311471.653845) vcan0 244#000000013B
(1735311471.656420) vcan0 095#800007F800000031
(1735311471.657850) vcan0 1A4#0000000800000001
(1735311471.657860) vcan0 1AA#7FFF000000006801
(1735311471.657863) vcan0 1B0#000F0000000148
(1735311471.657868) vcan0 1D0#000000000000000A
(1735311471.657872) vcan0 166#D0320009
(1735311471.659767) vcan0 158#000000000000000A
(1735311471.661035) vcan0 161#000005500108000D
(1735311471.661043) vcan0 191#010090A1410030
(1735311471.661046) vcan0 133#0000000098
(1735311471.661050) vcan0 136#000200000000001B
(1735311471.661054) vcan0 13A#0000000000000019
(1735311471.661057) vcan0 13F#000000050000001F
(1735311471.661061) vcan0 164#0000C01AA8000031
(1735311471.661065) vcan0 17C#0000000010000012
(1735311471.661068) vcan0 18E#00005C
(1735311471.662980) vcan0 183#0000000C0000101E
(1735311471.665410) vcan0 143#6B6B00D1
(1735311471.665419) vcan0 039#0039
(1735311471.665422) vcan0 095#800007F800000004
(1735311471.668580) vcan0 166#D0320018
(1735311471.668723) vcan0 244#0000000157
(1735311471.668653) vcan0 158#0000000000000019
(1735311471.668658) vcan0 161#000005500108001C
(1735311471.669922) vcan0 191#010090A1410003
(1735311471.670483) vcan0 133#00000000A7
(1735311471.672648) vcan0 136#000200000000002A
(1735311471.672657) vcan0 13A#0000000000000028
(1735311471.672661) vcan0 13F#000000050000002E
(1735311471.672664) vcan0 164#0000C01AA8000004
(1735311471.672668) vcan0 17C#0000000010000021
(1735311471.672672) vcan0 18E#00006B
(1735311471.672676) vcan0 1CF#80050000003C
(1735311471.672679) vcan0 1DC#02000039
(1735311471.672683) vcan0 183#0000000900001020
(1735311471.672689) vcan0 143#6B6B00E0
(1735311471.674383) vcan0 333#0000000000000F
(1735311471.675652) vcan0 095#800007F800000013
(1735311471.675728) vcan0 1A4#0000000800000010
(1735311471.675733) vcan0 1AA#7FFF000000006711
(1735311471.675737) vcan0 1B0#000F0000000157
(1735311471.677367) vcan0 1D0#000000000000000A
(1735311471.677385) vcan0 305#8008
(1735311471.677389) vcan0 166#D0320027
(1735311471.678872) vcan0 158#0000000000000028
(1735311471.679729) vcan0 161#000005500108002B
(1735311471.679735) vcan0 191#010090A1410012
(1735311471.679739) vcan0 133#00000000B6
(1735311471.679744) vcan0 136#0002000000000039
(1735311471.679748) vcan0 13A#0000000000000037
(1735311471.682895) vcan0 244#0000000134
(1735311471.683033) vcan0 13F#000000050000003D
(1735311471.685614) vcan0 164#0000C01AA8000013
(1735311471.685619) vcan0 17C#0000000010000030
(1735311471.685623) vcan0 18E#00007A
(1735311471.685628) vcan0 294#040B0002CF5A002C
(1735311471.685632) vcan0 21E#03E8374522062F
(1735311471.685635) vcan0 183#0000000E0000103A
(1735311471.685640) vcan0 143#6B6B00FF
(1735311471.685650) vcan0 039#000C
(1735311471.685654) vcan0 095#800007F800000022
(1735311471.691116) vcan0 166#D0320036
(1735311471.692860) vcan0 158#0000000000000037
(1735311471.692865) vcan0 161#000005500108003A
(1735311471.692869) vcan0 191#010010A1410029
(1735311471.692872) vcan0 133#0000000089
(1735311471.692876) vcan0 136#000200000000000C
(1735311471.692879) vcan0 13A#000000000000000A
(1735311471.692883) vcan0 13F#0000000500000000
(1735311471.692887) vcan0 164#0000C01AA8000022
(1735311471.692890) vcan0 17C#0000000010000003
(1735311471.692894) vcan0 18E#00004D
(1735311471.692898) vcan0 1CF#80050000000F
(1735311471.692902) vcan0 1DC#0200000C
(1735311471.692906) vcan0 320#000003
(1735311471.692911) vcan0 324#7465000000000E0B
(1735311471.692914) vcan0 37C#FD00FD00097F000B
(1735311471.692918) vcan0 183#0000001200001008
(1735311471.692921) vcan0 143#6B6B00C2
(1735311471.695550) vcan0 095#800007F800000031
(1735311471.697898) vcan0 1A4#000000080000002F
(1735311471.697907) vcan0 039#001B
(1735311471.697911) vcan0 1AA#7FFF000000006720
(1735311471.697915) vcan0 1B0#000F0000000166
(1735311471.697919) vcan0 1D0#000000000000000A
(1735311471.697924) vcan0 166#D0320009
(1735311471.700283) vcan0 244#00000001B3
(1735311471.701482) vcan0 158#000000000000000A
(1735311471.701509) vcan0 161#000005500108000D
(1735311471.701518) vcan0 191#010010A1410038
(1735311471.701526) vcan0 133#0000000098
(1735311471.701533) vcan0 136#000200000000001B
(1735311471.701541) vcan0 13A#0000000000000019
(1735311471.701549) vcan0 13F#000000050000001F
(1735311471.701557) vcan0 164#0000C01AA8000031
(1735311471.701564) vcan0 17C#0000000010000012
(1735311471.701573) vcan0 18E#00005C
(1735311471.703657) vcan0 183#0000000D0000101D
(1735311471.705494) vcan0 143#6B6B00D1
(1735311471.705502) vcan0 095#800007F800000004
(1735311471.707739) vcan0 166#D0320018
(1735311471.709466) vcan0 158#0000000000000019
(1735311471.709475) vcan0 161#000005500108001C
(1735311471.709479) vcan0 191#010010A141000B
(1735311471.709483) vcan0 164#0000C01AA8000004
(1735311471.709486) vcan0 133#00000000A7
(1735311471.711719) vcan0 244#000000015E
(1735311471.714177) vcan0 136#000200000000002A
(1735311471.714191) vcan0 13A#0000000000000028
(1735311471.714195) vcan0 13F#000000050000002E
(1735311471.714199) vcan0 039#002A
(1735311471.714202) vcan0 17C#0000000010000021
(1735311471.714206) vcan0 18E#00006B
(1735311471.714210) vcan0 1CF#80050000001E
(1735311471.714213) vcan0 1DC#0200001B
(1735311471.714217) vcan0 183#0000000900001020
(1735311471.714221) vcan0 143#6B6B00E0
(1735311471.716035) vcan0 095#800007F400000017
(1735311471.719427) vcan0 1A4#000000080000003E
(1735311471.720837) vcan0 1AA#7FFF00000000683E
(1735311471.720846) vcan0 1B0#000F0000000175
(1735311471.720850) vcan0 1D0#000000000000000A
(1735311471.720854) vcan0 166#D0320027
(1735311471.720858) vcan0 158#0000000000000028
(1735311471.720862) vcan0 161#000005500108002B
(1735311471.720865) vcan0 191#010010A141001A
(1735311471.720869) vcan0 133#00000000B6
(1735311471.720872) vcan0 136#0002000000000039
(1735311471.720877) vcan0 13A#0000000000000037
(1735311471.720881) vcan0 13F#000000050000003D
(1735311471.720886) vcan0 164#0000C01AA8000013
(1735311471.720889) vcan0 17C#0000000010000030
(1735311471.720892) vcan0 18E#00007A
(1735311471.720896) vcan0 294#040B0002CF5A003B
(1735311471.723065) vcan0 21E#03E8374522063E
(1735311471.725634) vcan0 309#0000000000000093
(1735311471.727166) vcan0 183#0000000600001032
(1735311471.727472) vcan0 244#00000001FC
(1735311471.728700) vcan0 143#6B6B00FF
(1735311471.728715) vcan0 039#0039
(1735311471.728724) vcan0 095#800007F400000026
(1735311471.728731) vcan0 166#D0320036
(1735311471.728739) vcan0 158#0000000000000037
(1735311471.728747) vcan0 161#000005500108003A
(1735311471.730708) vcan0 191#010010A1410029
(1735311471.732293) vcan0 133#0000000089
(1735311471.732300) vcan0 136#000200000000000C
(1735311471.732304) vcan0 13A#000000000000000A
(1735311471.732307) vcan0 13F#0000000500000000
(1735311471.732311) vcan0 164#0000C01AA8000022
(1735311471.732314) vcan0 17C#0000000010000003
(1735311471.732318) vcan0 18E#00004D
(1735311471.732322) vcan0 1CF#80050000002D
(1735311471.732325) vcan0 1DC#0200002A
(1735311471.732329) vcan0 183#0000000C0000100F
(1735311471.737646) vcan0 143#6B6B00C2
(1735311471.737668) vcan0 095#800007F400000035
(1735311471.737679) vcan0 1A4#0000000800000001
(1735311471.737683) vcan0 1AA#7FFF000000006801
(1735311471.737686) vcan0 1B0#000F0000000148
(1735311471.737690) vcan0 1D0#000000000000000A
(1735311471.737694) vcan0 166#D0320009
(1735311471.737738) vcan0 244#0000000174
(1735311471.741867) vcan0 039#000C
(1735311471.741889) vcan0 158#000000000000000A
(1735311471.741893) vcan0 161#000005500108000D
(1735311471.741905) vcan0 191#010010A1410038
(1735311471.741908) vcan0 133#0000000098
(1735311471.741912) vcan0 136#000200000000001B
(1735311471.742907) vcan0 13A#0000000000000019
(1735311471.743018) vcan0 13F#000000050000001F
(1735311471.743023) vcan0 164#0000C01AA8000031
(1735311471.743027) vcan0 17C#0000000010000012
(1735311471.743032) vcan0 18E#00005C
(1735311471.743036) vcan0 183#0000001000001019
(1735311471.743040) vcan0 143#6B6B00D1
(1735311471.746395) vcan0 095#800007F400000008
(1735311471.747885) vcan0 166#D0320018
(1735311471.748880) vcan0 244#0000000114
(1735311471.749304) vcan0 158#0000000000000019
(1735311471.749320) vcan0 161#000005500108001C
(1735311471.749324) vcan0 191#010010A141000B
(1735311471.749328) vcan0 133#00000000A7
(1735311471.749332) vcan0 136#000200000000002A
(1735311471.753130) vcan0 13A#0000000000000028
(1735311471.753151) vcan0 13F#000000050000002E
(1735311471.753155) vcan0 164#0000C01AA8000004
(1735311471.753159) vcan0 17C#0000000010000021
(1735311471.753164) vcan0 18E#00006B
(1735311471.753169) vcan0 1CF#80050000003C
(1735311471.753173) vcan0 1DC#02000039
(1735311471.753176) vcan0 183#0000000C0000102D
(1735311471.753180) vcan0 143#6B6B00E0
(1735311471.753184) vcan0 039#001B
(1735311471.755375) vcan0 095#800007F400000017
(1735311471.755401) vcan0 1A4#0000000800000010
(1735311471.755405) vcan0 1AA#7FFF000000006711
(1735311471.757053) vcan0 1B0#000F0000000157
(1735311471.757122) vcan0 1D0#000000000000000A
(1735311471.758441) vcan0 166#D0320027
(1735311471.758523) vcan0 158#0000000000000028
(1735311471.761941) vcan0 244#00000001C0
(1735311471.762322) vcan0 161#000005500108002B
(1735311471.762395) vcan0 191#010010A141001A
(1735311471.762400) vcan0 133#00000000B6
(1735311471.762406) vcan0 136#0002000000000039
(1735311471.762411) vcan0 13A#0000000000000037
(1735311471.762416) vcan0 13F#000000050000003D
(1735311471.762420) vcan0 164#0000C01AA8000013
(1735311471.762424) vcan0 17C#0000000010000030
(1735311471.762428) vcan0 18E#00007A
(1735311471.762432) vcan0 294#040B0002CF5A000E
(1735311471.762436) vcan0 21E#03E83745220601
(1735311471.762441) vcan0 183#0000001000001037
(1735311471.762445) vcan0 143#6B6B00FF
(1735311471.764899) vcan0 095#800007F400000026
(1735311471.766667) vcan0 039#002A
(1735311471.771694) vcan0 166#D0320036
(1735311471.773978) vcan0 158#0000000000000037
(1735311471.773986) vcan0 161#000005500108003A
(1735311471.773991) vcan0 191#010010A1410029
(1735311471.773995) vcan0 133#0000000089
(1735311471.773999) vcan0 136#000200000000000C
(1735311471.774004) vcan0 13A#000000000000000A
(1735311471.774008) vcan0 13F#0000000500000000
(1735311471.774011) vcan0 164#0000C01AA8000022
(1735311471.774015) vcan0 17C#0000000010000003
(1735311471.774018) vcan0 18E#00004D
(1735311471.774022) vcan0 1CF#80050000000F
(1735311471.774028) vcan0 1DC#0200000C
(1735311471.774032) vcan0 183#0000000C0000100F
(1735311471.774035) vcan0 143#6B6B00C2
(1735311471.774039) vcan0 333#0000000000001E
(1735311471.776802) vcan0 095#800007F400000035
(1735311471.777348) vcan0 244#00000001E1
(1735311471.779199) vcan0 1A4#000000080000002F
(1735311471.779207) vcan0 1AA#7FFF000000006720
(1735311471.779211) vcan0 1B0#000F0000000166
(1735311471.779214) vcan0 1D0#000000000000000A
(1735311471.779218) vcan0 166#D0320009
(1735311471.779222) vcan0 305#8017
(1735311471.779226) vcan0 158#000000000000000A
(1735311471.779229) vcan0 161#000005500108000D
(1735311471.779234) vcan0 191#010010A1410038
(1735311471.779238) vcan0 133#0000000098
(1735311471.781579) vcan0 136#000200000000001B
(1735311471.784487) vcan0 13A#0000000000000019
(1735311471.784496) vcan0 13F#000000050000001F
(1735311471.784500) vcan0 164#0000C01AA8000031
(1735311471.784504) vcan0 17C#0000000010000012
(1735311471.784508) vcan0 18E#00005C
(1735311471.784512) vcan0 183#0000000900001011
(1735311471.784516) vcan0 143#6B6B00D1
(1735311471.789236) vcan0 095#800007F400000008
(1735311471.789261) vcan0 039#0039
(1735311471.789265) vcan0 166#D0320018
(1735311471.789277) vcan0 158#0000000000000019
(1735311471.789281) vcan0 161#000005500108001C
(1735311471.789286) vcan0 191#010010A141000B
(1735311471.789292) vcan0 133#00000000A7
(1735311471.790215) vcan0 244#0000000109
(1735311471.792018) vcan0 136#000200000000002A
(1735311471.792031) vcan0 13A#0000000000000028
(1735311471.792035) vcan0 13F#000000050000002E
(1735311471.792039) vcan0 164#0000C01AA8000004
(1735311471.792042) vcan0 17C#0000000010000021
(1735311471.792046) vcan0 18E#00006B
(1735311471.792050) vcan0 1CF#80050000001E
(1735311471.792053) vcan0 1DC#0200001B
(1735311471.792058) vcan0 320#000012
(1735311471.792062) vcan0 324#7465000000000E1A
(1735311471.792067) vcan0 37C#FD00FD00097F001A
(1735311471.792071) vcan0 40C#0236323239533039
(1735311471.792075) vcan0 183#0000000E0000102B
(1735311471.792079) vcan0 454#23EF36
(1735311471.795826) vcan0 143#6B6B00E0
(1735311471.795845) vcan0 095#800007F400000017
(1735311471.795849) vcan0 1A4#000000080000003E
(1735311471.795853) vcan0 1AA#7FFF00000000683E
(1735311471.795857) vcan0 1B0#000F0000000175
(1735311471.798446) vcan0 1D0#000000000000000A
(1735311471.802697) vcan0 166#D0320027
(1735311471.802965) vcan0 244#0000000166
(1735311471.805200) vcan0 158#0000000000000028
(1735311471.805212) vcan0 039#000C
(1735311471.805216) vcan0 161#000005500108002B
(1735311471.805220) vcan0 191#010010A141001A
(1735311471.805225) vcan0 133#00000000B6
(1735311471.805229) vcan0 136#0002000000000039
(1735311471.805233) vcan0 13A#0000000000000037
(1735311471.805237) vcan0 13F#000000050000003D
(1735311471.805241) vcan0 164#0000C01AA8000013
(1735311471.805244) vcan0 17C#0000000010000030
(1735311471.805251) vcan0 18E#00007A
(1735311471.805255) vcan0 294#040B0002CF5A001D
(1735311471.805259) vcan0 21E#03E83745220610
(1735311471.805264) vcan0 183#0000000A0000103E
(1735311471.805268) vcan0 143#6B6B00FF
(1735311471.805272) vcan0 095#800007F400000026
(1735311471.809439) vcan0 166#D0320036
(1735311471.811752) vcan0 158#0000000000000037
(1735311471.811762) vcan0 161#000005500108003A
(1735311471.811766) vcan0 191#010010A1410029
(1735311471.811770) vcan0 133#0000000089
(1735311471.811774) vcan0 136#000200000000000C
(1735311471.811778) vcan0 13A#000000000000000A
(1735311471.811782) vcan0 13F#0000000500000000
(1735311471.811786) vcan0 164#0000C01AA8000022
(1735311471.811790) vcan0 17C#0000000010000003
(1735311471.811794) vcan0 18E#00004D
(1735311471.811799) vcan0 1CF#80050000002D
(1735311471.811804) vcan0 1DC#0200002A
(1735311471.811808) vcan0 183#0000000700001004
(1735311471.814749) vcan0 143#6B6B00C2
(1735311471.822129) vcan0 095#800007F400000035
(1735311471.822146) vcan0 039#001B
(1735311471.822152) vcan0 1A4#0000000800000001
(1735311471.822156) vcan0 1AA#7FFF000000006801
(1735311471.822161) vcan0 1B0#000F0000000148
(1735311471.822165) vcan0 1D0#000000000000000A
(1735311471.822159) vcan0 244#0000000124
(1735311471.822169) vcan0 166#D0320009
(1735311471.822173) vcan0 158#000000000000000A
(1735311471.822177) vcan0 161#000005500108000D
(1735311471.822182) vcan0 191#010010A1410038
(1735311471.822188) vcan0 133#0000000098
(1735311471.822192) vcan0 136#000200000000001B
(1735311471.822197) vcan0 13A#0000000000000019
(1735311471.822201) vcan0 13F#000000050000001F
(1735311471.822204) vcan0 164#0000C01AA8000031
(1735311471.822208) vcan0 17C#0000000010000012
(1735311471.822211) vcan0 18E#00005C
(1735311471.822215) vcan0 309#00000000000000A2
(1735311471.822219) vcan0 428#01040000521C01
(1735311471.822222) vcan0 405#000004000000000B
(1735311471.822226) vcan0 183#0000000D0000101D
(1735311471.828007) vcan0 143#6B6B00D1
(1735311471.831759) vcan0 095#800007F400000008
(1735311471.831772) vcan0 166#D0320018
(1735311471.831777) vcan0 158#0000000000000019
(1735311471.831780) vcan0 161#000005500108001C
(1735311471.831784) vcan0 191#010010A141000B
(1735311471.831788) vcan0 039#002A
(1735311471.831792) vcan0 133#00000000A7
(1735311471.831795) vcan0 136#000200000000002A
(1735311471.831799) vcan0 13A#0000000000000028
(1735311471.831803) vcan0 13F#000000050000002E
(1735311471.831807) vcan0 164#0000C01AA8000004
(1735311471.831810) vcan0 17C#0000000010000021
(1735311471.831815) vcan0 18E#00006B
(1735311471.831819) vcan0 1CF#80050000003C
(1735311471.831823) vcan0 1DC#02000039
(1735311471.831826) vcan0 183#0000000900001020
(1735311471.835617) vcan0 143#6B6B00E0
(1735311471.838848) vcan0 095#800007F400000017
(1735311471.838857) vcan0 1A4#0000000800000010
(1735311471.838861) vcan0 1AA#7FFF000000006711
(1735311471.838865) vcan0 1B0#000F0000000157
(1735311471.838869) vcan0 1D0#000000000000000A
(1735311471.838873) vcan0 166#D0320027
(1735311471.838877) vcan0 158#0000000000000028
(1735311471.838883) vcan0 161#000005500108002B
(1735311471.838887) vcan0 191#010010A141001A
(1735311471.839854) vcan0 244#00000001C8
(1735311471.842141) vcan0 133#00000000B6
(1735311471.846083) vcan0 136#0002000000000039
(1735311471.847970) vcan0 13A#0000000000000037
(1735311471.847977) vcan0 13F#000000050000003D
(1735311471.847982) vcan0 164#0000C01AA8000013
(1735311471.847987) vcan0 17C#0000000010000030
(1735311471.847990) vcan0 18E#00007A
(1735311471.847994) vcan0 294#040B0002CF5A002C
(1735311471.847998) vcan0 21E#03E8374522062F
(1735311471.848002) vcan0 183#0000000E0000103A
(1735311471.848005) vcan0 143#6B6B00FF
(1735311471.848009) vcan0 095#800007F400000026
(1735311471.848013) vcan0 5A1#960000000000623E
(1735311471.848017) vcan0 166#D0320036
(1735311471.851158) vcan0 158#0000000000000037
(1735311471.853956) vcan0 161#000005500108003A
(1735311471.853967) vcan0 191#010010A1410029
(1735311471.853971) vcan0 133#0000000089
(1735311471.853975) vcan0 039#0039
(1735311471.853979) vcan0 136#000200000000000C
(1735311471.853983) vcan0 13A#000000000000000A
(1735311471.853988) vcan0 13F#0000000500000000
(1735311471.853992) vcan0 164#0000C01AA8000022
(1735311471.853995) vcan0 17C#0000000010000003
(1735311471.853999) vcan0 18E#00004D
(1735311471.854003) vcan0 1CF#80050000000F
(1735311471.854006) vcan0 1DC#0200000C
(1735311471.854010) vcan0 183#0000000A00001001
(1735311471.854014) vcan0 143#6B6B00C2
(1735311471.855268) vcan0 244#00000001F2
(1735311471.858073) vcan0 095#800007F400000035
(1735311471.858105) vcan0 1A4#000000080000002F
(1735311471.858110) vcan0 1AA#7FFF000000006720
(1735311471.858114) vcan0 1B0#000F0000000166
(1735311471.858118) vcan0 1D0#000000000000000A
(1735311471.858122) vcan0 166#D0320009
(1735311471.861215) vcan0 158#000000000000000A
(1735311471.861231) vcan0 161#000005500108000D
(1735311471.861235) vcan0 191#010010A1410038
(1735311471.861239) vcan0 133#0000000098
(1735311471.861243) vcan0 136#000200000000001B
(1735311471.861246) vcan0 13A#0000000000000019
(1735311471.861250) vcan0 13F#000000050000001F
(1735311471.861253) vcan0 164#0000C01AA8000031
(1735311471.861257) vcan0 17C#0000000010000012
(1735311471.861261) vcan0 18E#00005C
(1735311471.863666) vcan0 183#0000000700001013
(1735311471.863672) vcan0 143#6B6B00D1
(1735311471.870824) vcan0 039#000C
(1735311471.873513) vcan0 244#0000000122
(1735311471.874954) vcan0 095#800007F400000008
(1735311471.874962) vcan0 166#D0320018
(1735311471.874966) vcan0 158#0000000000000019
(1735311471.874970) vcan0 161#000005500108001C
(1735311471.874973) vcan0 191#010010A141000B
(1735311471.874977) vcan0 133#00000000A7
(1735311471.874981) vcan0 136#000200000000002A
(1735311471.874985) vcan0 13A#0000000000000028
(1735311471.874988) vcan0 13F#000000050000002E
(1735311471.874993) vcan0 164#0000C01AA8000004
(1735311471.874998) vcan0 17C#0000000010000021
(1735311471.875002) vcan0 18E#00006B
(1735311471.875005) vcan0 1CF#80050000001E
(1735311471.875009) vcan0 1DC#0200001B
(1735311471.875012) vcan0 183#0000000500001024
(1735311471.875016) vcan0 143#6B6B00E0
(1735311471.875020) vcan0 333#0000000000002D
(1735311471.875024) vcan0 095#800007F400000017
(1735311471.878558) vcan0 1A4#000000080000003E
(1735311471.880855) vcan0 1AA#7FFF00000000683E
(1735311471.880862) vcan0 1B0#000F0000000175
(1735311471.880866) vcan0 1D0#000000000000000A
(1735311471.880874) vcan0 039#001B
(1735311471.880878) vcan0 166#D0320027
(1735311471.880882) vcan0 158#0000000000000028
(1735311471.882910) vcan0 161#000005500108002B
(1735311471.882917) vcan0 191#010010A141001A
(1735311471.882920) vcan0 133#00000000B6
(1735311471.882924) vcan0 136#0002000000000039
(1735311471.882928) vcan0 13A#0000000000000037
(1735311471.882931) vcan0 13F#000000050000003D
(1735311471.882935) vcan0 164#0000C01AA8000013
(1735311471.882939) vcan0 17C#0000000010000030
(1735311471.882942) vcan0 18E#00007A
(1735311471.882946) vcan0 294#040B0002CF5A003B
(1735311471.882949) vcan0 21E#03E8374522063E
(1735311471.882961) vcan0 183#0000000300001035
(1735311471.882965) vcan0 143#6B6B00FF
(1735311471.885428) vcan0 305#8026
(1735311471.886754) vcan0 095#800007F400000026
(1735311471.890931) vcan0 244#0000000177
(1735311471.892090) vcan0 166#D0320036
(1735311471.894989) vcan0 158#0000000000000037
(1735311471.896901) vcan0 161#000005500108003A
(1735311471.900461) vcan0 191#010010A1410029
(1735311471.905377) vcan0 244#0000000175
(1735311471.906950) vcan0 133#0000000089
(1735311471.906963) vcan0 136#000200000000000C
(1735311471.906966) vcan0 13A#000000000000000A
(1735311471.906970) vcan0 13F#0000000500000000
(1735311471.906974) vcan0 164#0000C01AA8000022
(1735311471.906977) vcan0 039#002A
(1735311471.906981) vcan0 17C#0000000010000003
(1735311471.906985) vcan0 18E#00004D
(1735311471.906988) vcan0 1CF#80050000002D
(1735311471.906992) vcan0 1DC#0200002A
(1735311471.906995) vcan0 320#000021
(1735311471.906998) vcan0 324#7465000000000E29
(1735311471.907002) vcan0 37C#FD00FD00097F0029
(1735311471.907006) vcan0 183#0000000A00001001
(1735311471.907009) vcan0 143#6B6B00C2
(1735311471.907013) vcan0 095#800007F400000035
(1735311471.907017) vcan0 1A4#0000000800000001
(1735311471.907021) vcan0 1AA#7FFF000000006801
(1735311471.907024) vcan0 1B0#000F0000000148
(1735311471.907028) vcan0 1D0#000000000000000A
(1735311471.907032) vcan0 166#D0320009
(1735311471.907036) vcan0 158#000000000000000A
(1735311471.907039) vcan0 161#000005500108000D
(1735311471.907043) vcan0 191#010010A1410038
(1735311471.907047) vcan0 133#0000000098
(1735311471.907050) vcan0 136#000200000000001B
(1735311471.907054) vcan0 13A#0000000000000019
(1735311471.907057) vcan0 13F#000000050000001F
(1735311471.907061) vcan0 164#0000C01AA8000031
(1735311471.907064) vcan0 17C#0000000010000012
(1735311471.907068) vcan0 18E#00005C
(1735311471.907071) vcan0 183#0000000700001013
(1735311471.907075) vcan0 143#6B6B00D1
(1735311471.907080) vcan0 095#800007F400000008
(1735311471.908863) vcan0 166#D0320018
(1735311471.911074) vcan0 158#0000000000000019
(1735311471.911082) vcan0 161#000005500108001C
(1735311471.911085) vcan0 191#010010A141000B
(1735311471.911089) vcan0 133#00000000A7
(1735311471.911093) vcan0 136#000200000000002A
(1735311471.911096) vcan0 13A#0000000000000028
(1735311471.911100) vcan0 13F#000000050000002E
(1735311471.911103) vcan0 164#0000C01AA8000004
(1735311471.911107) vcan0 039#0039
(1735311471.911111) vcan0 17C#0000000010000021
(1735311471.911115) vcan0 18E#00006B
(1735311471.911119) vcan0 1CF#80050000003C
(1735311471.911123) vcan0 1DC#02000039
(1735311471.913070) vcan0 183#0000000500001024
(1735311471.914641) vcan0 143#6B6B00E0
(1735311471.916737) vcan0 095#800007F400000017
(1735311471.916743) vcan0 1A4#0000000800000010
(1735311471.916746) vcan0 1AA#7FFF000000006711
(1735311471.916750) vcan0 1B0#000F0000000157
(1735311471.916753) vcan0 1D0#000000000000000A
(1735311471.921417) vcan0 166#D0320027
(1735311471.921886) vcan0 244#00000001B9
(1735311471.923693) vcan0 158#0000000000000028
(1735311471.923699) vcan0 161#000005500108002B
(1735311471.923703) vcan0 191#010010A141001A
(1735311471.923707) vcan0 133#00000000B6
(1735311471.923712) vcan0 136#0002000000000039
(1735311471.923715) vcan0 13A#0000000000000037
(1735311471.923719) vcan0 13F#000000050000003D
(1735311471.923722) vcan0 164#0000C01AA8000013
(1735311471.923726) vcan0 17C#0000000010000030
(1735311471.923729) vcan0 18E#00007A
(1735311471.923733) vcan0 294#040B0002CF5A000E
(1735311471.923737) vcan0 21E#03E83745220601
(1735311471.923741) vcan0 309#00000000000000B1
(1735311471.923750) vcan0 183#0000000B0000103D
(1735311471.923753) vcan0 143#6B6B00FF
(1735311471.927708) vcan0 039#000C
(1735311471.929808) vcan0 095#800007F400000026
(1735311471.929815) vcan0 166#D0320036
(1735311471.929819) vcan0 158#0000000000000037
(1735311471.929823) vcan0 161#000005500108003A
(1735311471.929826) vcan0 191#010010A1410029
(1735311471.929830) vcan0 133#0000000089
(1735311471.929834) vcan0 136#000200000000000C
(1735311471.929838) vcan0 13A#000000000000000A
(1735311471.929841) vcan0 13F#0000000500000000
(1735311471.932579) vcan0 164#0000C01AA8000022
(1735311471.932596) vcan0 17C#0000000010000003
(1735311471.932600) vcan0 18E#00004D
(1735311471.932603) vcan0 1CF#80050000000F
(1735311471.932608) vcan0 1DC#0200000C
(1735311471.932611) vcan0 183#0000000800001003
(1735311471.932622) vcan0 143#6B6B00C2
(1735311471.935012) vcan0 244#000000015D
(1735311471.935020) vcan0 095#800007F400000035
(1735311471.936810) vcan0 1A4#000000080000002F
(1735311471.936817) vcan0 1AA#7FFF000000006720
(1735311471.936821) vcan0 1B0#000F0000000166
(1735311471.936827) vcan0 1D0#000000000000000A
(1735311471.938927) vcan0 166#D0320009
(1735311471.941484) vcan0 039#001B
(1735311471.941492) vcan0 158#000000000000000A
(1735311471.943291) vcan0 161#000005500108000D
(1735311471.943296) vcan0 191#010010A1410038
(1735311471.943300) vcan0 133#0000000098
(1735311471.943304) vcan0 136#000200000000001B
(1735311471.943307) vcan0 13A#0000000000000019
(1735311471.943311) vcan0 13F#000000050000001F
(1735311471.943314) vcan0 164#0000C01AA8000031
(1735311471.943318) vcan0 17C#0000000010000012
(1735311471.943321) vcan0 18E#00005C
(1735311471.943325) vcan0 183#0000000600001014
(1735311471.943328) vcan0 143#6B6B00D1
(1735311471.946858) vcan0 095#800007F400000008
(1735311471.948646) vcan0 166#D0320018
(1735311471.948653) vcan0 158#0000000000000019
(1735311471.948657) vcan0 161#000005500108001C
(1735311471.950916) vcan0 244#000000015D
(1735311471.951606) vcan0 191#010010A141000B
(1735311471.951770) vcan0 133#00000000A7
(1735311471.951775) vcan0 136#000200000000002A
(1735311471.951798) vcan0 13A#0000000000000028
(1735311471.951802) vcan0 13F#000000050000002E
(1735311471.951806) vcan0 164#0000C01AA8000004
(1735311471.951809) vcan0 17C#0000000010000021
(1735311471.951813) vcan0 18E#00006B
(1735311471.951816) vcan0 1CF#80050000001E
(1735311471.951820) vcan0 1DC#0200001B
(1735311471.951824) vcan0 183#0000000C0000102D
(1735311471.954729) vcan0 143#6B6B00E0
(1735311471.954763) vcan0 039#002A
(1735311471.954768) vcan0 095#800007F400000017
(1735311471.959768) vcan0 1A4#000000080000003E
(1735311471.962064) vcan0 1AA#7FFF00000000683E
(1735311471.962072) vcan0 1B0#000F0000000175
(1735311471.962075) vcan0 1D0#000000000000000A
(1735311471.962079) vcan0 166#D0320027
(1735311471.962084) vcan0 158#0000000000000028
(1735311471.962088) vcan0 161#000005500108002B
(1735311471.962092) vcan0 191#010010A141001A
(1735311471.962096) vcan0 133#00000000B6
(1735311471.962100) vcan0 136#0002000000000039
(1735311471.962104) vcan0 13A#0000000000000037
(1735311471.962107) vcan0 13F#000000050000003D
(1735311471.962111) vcan0 164#0000C01AA8000013
(1735311471.962114) vcan0 17C#0000000010000030
(1735311471.962117) vcan0 18E#00007A
(1735311471.962121) vcan0 294#040B0002CF5A001D
(1735311471.962125) vcan0 21E#03E83745220610
(1735311471.963540) vcan0 183#000000090000103F
(1735311471.963551) vcan0 143#6B6B00FF
(1735311471.965539) vcan0 244#0000000197
(1735311471.965673) vcan0 095#800007F400000026
(1735311471.967600) vcan0 166#D0320036
(1735311471.971081) vcan0 158#0000000000000037
(1735311471.971103) vcan0 161#000005500108003A
(1735311471.971107) vcan0 191#010010A1410029
(1735311471.971112) vcan0 133#0000000089
(1735311471.971117) vcan0 136#000200000000000C
(1735311471.971121) vcan0 13A#000000000000000A
(1735311471.971125) vcan0 13F#0000000500000000
(1735311471.971128) vcan0 164#0000C01AA8000022
(1735311471.971132) vcan0 17C#0000000010000003
(1735311471.971135) vcan0 18E#00004D
(1735311471.971139) vcan0 1CF#80050000002D
(1735311471.971142) vcan0 1DC#0200002A
(1735311471.974698) vcan0 183#0000000E0000100D
(1735311471.977084) vcan0 244#00000001E8
(1735311471.977770) vcan0 143#6B6B00C2
(1735311471.978180) vcan0 039#0039
(1735311471.978184) vcan0 333#0000000000003C
(1735311471.978188) vcan0 095#800007F400000035
(1735311471.978191) vcan0 1A4#0000000800000001
(1735311471.978195) vcan0 1AA#7FFF000000006801
(1735311471.978198) vcan0 1B0#000F0000000148
(1735311471.978202) vcan0 1D0#000000000000000A
(1735311471.978205) vcan0 166#D0320009
(1735311471.981338) vcan0 158#000000000000000A
(1735311471.982625) vcan0 161#000005500108000D
(1735311471.982638) vcan0 191#010010A1410038
(1735311471.982642) vcan0 133#0000000098
(1735311471.982646) vcan0 136#000200000000001B
(1735311471.982649) vcan0 13A#0000000000000019
(1735311471.982653) vcan0 13F#000000050000001F
(1735311471.982656) vcan0 164#0000C01AA8000031
(1735311471.982660) vcan0 17C#0000000010000012
(1735311471.982664) vcan0 18E#00005C
(1735311471.982668) vcan0 183#0000000A00001010
(1735311471.982674) vcan0 143#6B6B00D1
(1735311471.986750) vcan0 095#800007F400000008
(1735311471.988602) vcan0 305#8035
(1735311471.988617) vcan0 166#D0320018
(1735311471.988620) vcan0 158#0000000000000019
(1735311471.990105) vcan0 244#0000000168
(1735311471.991259) vcan0 161#000005500108001C
(1735311471.991276) vcan0 191#010090A1410003
(1735311471.991279) vcan0 133#00000000A7
(1735311471.991283) vcan0 136#000200000000002A
(1735311471.991287) vcan0 13A#0000000000000028
(1735311471.991291) vcan0 13F#000000050000002E
(1735311471.991295) vcan0 164#0000C01AA8000004
(1735311471.991298) vcan0 17C#0000000010000021
(1735311471.991302) vcan0 18E#00006B
(1735311471.991308) vcan0 1CF#80050000003C
(1735311471.991311) vcan0 1DC#02000039
(1735311471.991315) vcan0 320#000030
(1735311471.991319) vcan0 324#7465000000000E38
(1735311471.994717) vcan0 37C#FD00FD00097F0038
(1735311471.994731) vcan0 183#0000000F0000102A
(1735311471.994735) vcan0 143#6B6B00E0
(1735311471.994739) vcan0 039#000C
(1735311471.997482) vcan0 095#800007F400000017
(1735311472.000692) vcan0 1A4#0000000800000010
(1735311472.000700) vcan0 1AA#7FFF000000006711
(1735311472.000704) vcan0 1B0#000F0000000157
(1735311472.000707) vcan0 1D0#000000000000000A
(1735311472.000711) vcan0 166#D0320027
(1735311472.000714) vcan0 158#0000000000000028
(1735311472.000718) vcan0 161#000005500108002B
(1735311472.000721) vcan0 191#010090A1410012
(1735311472.000725) vcan0 133#00000000B6
(1735311472.000728) vcan0 136#0002000000000039
(1735311472.000732) vcan0 13A#0000000000000037
(1735311472.000743) vcan0 13F#000000050000003D
(1735311472.000746) vcan0 164#0000C01AA8000013
(1735311472.000750) vcan0 17C#0000000010000030
(1735311472.000753) vcan0 18E#00007A
(1735311472.000757) vcan0 294#040B0002CF5A002C
(1735311472.000834) vcan0 244#0000000106
(1735311472.003366) vcan0 21E#03E8374522062F
(1735311472.004273) vcan0 183#0000001300001034
(1735311472.004280) vcan0 143#6B6B00FF
(1735311472.006653) vcan0 095#800007F400000026
(1735311472.010543) vcan0 166#D0320036
(1735311472.014585) vcan0 244#00000001D7
(1735311472.015075) vcan0 039#001B
(1735311472.015081) vcan0 158#0000000000000037
(1735311472.015084) vcan0 161#000005500108003A
(1735311472.015088) vcan0 191#010090A1410021
(1735311472.015092) vcan0 133#0000000089
(1735311472.015096) vcan0 136#000200000000000C
(1735311472.015100) vcan0 13A#000000000000000A
(1735311472.015104) vcan0 13F#0000000500000000
(1735311472.015108) vcan0 164#0000C01AA8000022
(1735311472.015112) vcan0 17C#0000000010000003
(1735311472.015115) vcan0 18E#00004D
(1735311472.015119) vcan0 1CF#80050000000F
(1735311472.015123) vcan0 1DC#0200000C
(1735311472.015127) vcan0 183#0000000E0000100D
(1735311472.015130) vcan0 143#6B6B00C2
(1735311472.015134) vcan0 095#800007F400000035
(1735311472.015137) vcan0 1A4#000000080000002F
(1735311472.017437) vcan0 1AA#7FFF000000006720
(1735311472.017455) vcan0 1B0#000F0000000166
(1735311472.017459) vcan0 1D0#000000000000000A
(1735311472.017582) vcan0 166#D0320009
(1735311472.021081) vcan0 158#000000000000000A
(1735311472.024341) vcan0 161#000005500108000D
(1735311472.024350) vcan0 191#010090A1410030
(1735311472.024354) vcan0 133#0000000098
(1735311472.024358) vcan0 136#000200000000001B
(1735311472.024362) vcan0 13A#0000000000000019
(1735311472.024365) vcan0 13F#000000050000001F
(1735311472.024369) vcan0 164#0000C01AA8000031
(1735311472.024372) vcan0 17C#0000000010000012
(1735311472.024375) vcan0 18E#00005C
(1735311472.024379) vcan0 309#0000000000000084
(1735311472.024382) vcan0 039#002A
(1735311472.024386) vcan0 183#0000000A00001010
(1735311472.024391) vcan0 143#6B6B00D1
(1735311472.026063) vcan0 095#800007F400000008
(1735311472.030184) vcan0 244#0000000156
(1735311472.030202) vcan0 188#00000000
(1735311472.031104) vcan0 166#D0320018
(1735311472.031122) vcan0 158#0000000000000019
(1735311472.031126) vcan0 161#000005500108001C
(1735311472.031129) vcan0 191#010090A1410003
(1735311472.031133) vcan0 133#00000000A7
(1735311472.031137) vcan0 136#000200000000002A
(1735311472.031140) vcan0 13A#0000000000000028
(1735311472.031144) vcan0 13F#000000050000002E
(1735311472.031147) vcan0 164#0000C01AA8000004
(1735311472.031151) vcan0 17C#0000000010000021
(1735311472.031155) vcan0 18E#00006B
(1735311472.031158) vcan0 1CF#80050000001E
(1735311472.031162) vcan0 1DC#0200001B
(1735311472.033510) vcan0 183#0000000700001022
(1735311472.034418) vcan0 143#6B6B00E0
(1735311472.039378) vcan0 095#800007F400000017
(1735311472.042180) vcan0 1A4#000000080000003E
(1735311472.042190) vcan0 1AA#7FFF00000000683E
(1735311472.042202) vcan0 039#0039
(1735311472.042206) vcan0 1B0#000F0000000175
(1735311472.042210) vcan0 1D0#000000000000000A
(1735311472.042213) vcan0 166#D0320027
(1735311472.042217) vcan0 158#0000000000000028
(1735311472.042220) vcan0 161#000005500108002B
(1735311472.042223) vcan0 191#010090A1410012
(1735311472.042227) vcan0 133#00000000B6
(1735311472.042230) vcan0 136#0002000000000039
(1735311472.042234) vcan0 13A#0000000000000037
(1735311472.042237) vcan0 13F#000000050000003D
(1735311472.042241) vcan0 164#0000C01AA8000013
(1735311472.042244) vcan0 17C#0000000010000030
(1735311472.042248) vcan0 18E#00007A
(1735311472.042251) vcan0 294#040B0002CF5A003B
(1735311472.042256) vcan0 21E#03E8374522063E
(1735311472.045831) vcan0 244#000000012B
(1735311472.049003) vcan0 183#0000000D0000103B
(1735311472.050770) vcan0 143#6B6B00FF
(1735311472.050776) vcan0 095#800007F400000026
(1735311472.050780) vcan0 166#D0320036
(1735311472.050784) vcan0 158#0000000000000037
(1735311472.050789) vcan0 161#000005500108003A
(1735311472.050792) vcan0 191#010090A1410021
(1735311472.050796) vcan0 133#0000000089
(1735311472.050799) vcan0 136#000200000000000C
(1735311472.050803) vcan0 13A#000000000000000A
(1735311472.050806) vcan0 13F#0000000500000000
(1735311472.050810) vcan0 039#000C
(1735311472.050813) vcan0 164#0000C01AA8000022
(1735311472.050816) vcan0 17C#0000000010000003
(1735311472.050820) vcan0 18E#00004D
(1735311472.050824) vcan0 1CF#80050000002D
(1735311472.053213) vcan0 1DC#0200002A
(1735311472.056922) vcan0 183#0000001100001009
(1735311472.058438) vcan0 143#6B6B00C2
(1735311472.058446) vcan0 095#800007F400000035
(1735311472.058451) vcan0 1A4#0000000800000001
(1735311472.058455) vcan0 1AA#7FFF000000006801
(1735311472.058458) vcan0 1B0#000F0000000148
(1735311472.058462) vcan0 1D0#000000000000000A
(1735311472.058466) vcan0 166#D0320009
(1735311472.058472) vcan0 158#000000000000000A
(1735311472.061318) vcan0 161#000005500108000D
(1735311472.062083) vcan0 244#0000000171
(1735311472.063738) vcan0 191#010090A1410030
(1735311472.063744) vcan0 133#0000000098
(1735311472.063749) vcan0 136#000200000000001B
(1735311472.063753) vcan0 13A#0000000000000019
(1735311472.063757) vcan0 13F#000000050000001F
(1735311472.063761) vcan0 164#0000C01AA8000031
(1735311472.063764) vcan0 17C#0000000010000012
(1735311472.063768) vcan0 18E#00005C
(1735311472.063771) vcan0 183#0000000C0000101E
(1735311472.063775) vcan0 143#6B6B00D1
(1735311472.063778) vcan0 039#001B
(1735311472.066697) vcan0 095#800007F400000008
(1735311472.068993) vcan0 166#D0320018
(1735311472.069000) vcan0 158#0000000000000019
(1735311472.069004) vcan0 161#000005500108001C
(1735311472.069007) vcan0 191#010090A1410003
(1735311472.070843) vcan0 133#00000000A7
(1735311472.075951) vcan0 136#000200000000002A
(1735311472.075960) vcan0 13A#0000000000000028
(1735311472.075964) vcan0 13F#000000050000002E
(1735311472.075968) vcan0 164#0000C01AA8000004
(1735311472.075971) vcan0 17C#0000000010000021
(1735311472.075975) vcan0 18E#00006B
(1735311472.075978) vcan0 1CF#80050000003C
(1735311472.075983) vcan0 1DC#02000039
(1735311472.075986) vcan0 183#0000001000001028
(1735311472.075990) vcan0 143#6B6B00E0
(1735311472.075994) vcan0 333#0000000000000F
(1735311472.075998) vcan0 095#800007F400000017
(1735311472.076001) vcan0 1A4#0000000800000010
(1735311472.076005) vcan0 1AA#7FFF000000006711
(1735311472.076009) vcan0 1B0#000F0000000157
(1735311472.076012) vcan0 1D0#000000000000000A
(1735311472.077844) vcan0 244#00000001B0
(1735311472.078646) vcan0 039#002A
(1735311472.080257) vcan0 166#D0320027
(1735311472.082479) vcan0 158#0000000000000028
(1735311472.082485) vcan0 161#000005500108002B
(1735311472.082489) vcan0 191#010090A1410012
(1735311472.082492) vcan0 133#00000000B6
(1735311472.082496) vcan0 136#0002000000000039
(1735311472.082499) vcan0 13A#0000000000000037
(1735311472.082503) vcan0 13F#000000050000003D
(1735311472.082506) vcan0 164#0000C01AA8000013
(1735311472.082510) vcan0 17C#0000000010000030
(1735311472.082513) vcan0 18E#00007A
(1735311472.082517) vcan0 294#040B0002CF5A000E
(1735311472.082520) vcan0 21E#03E83745220601
(1735311472.082524) vcan0 183#0000000C0000103C
(1735311472.082527) vcan0 143#6B6B00FF
(1735311472.085452) vcan0 095#800007F400000026
(1735311472.089069) vcan0 166#D0320036
(1735311472.093443) vcan0 158#0000000000000037
(1735311472.093451) vcan0 161#000005500108003A
(1735311472.093455) vcan0 191#010090A1410021
(1735311472.093459) vcan0 133#0000000089
(1735311472.093462) vcan0 136#000200000000000C
(1735311472.093466) vcan0 13A#000000000000000A
(1735311472.093469) vcan0 039#0039
(1735311472.093473) vcan0 13F#0000000500000000
(1735311472.093477) vcan0 164#0000C01AA8000022
(1735311472.093480) vcan0 17C#0000000010000003
(1735311472.093484) vcan0 18E#00004D
(1735311472.093487) vcan0 1CF#80050000000F
(1735311472.093491) vcan0 1DC#0200000C
(1735311472.093494) vcan0 305#8008
(1735311472.093497) vcan0 320#000003
(1735311472.093501) vcan0 324#7465000000000E0B
(1735311472.093505) vcan0 37C#FD00FD00097F000B
(1735311472.093508) vcan0 183#0000000900001002
(1735311472.093511) vcan0 40C#033133383439000D
(1735311472.093515) vcan0 454#23EF09
(1735311472.093518) vcan0 143#6B6B00C2
(1735311472.095025) vcan0 244#0000000152
(1735311472.097558) vcan0 095#800007F400000035
(1735311472.097574) vcan0 1A4#000000080000002F
(1735311472.097578) vcan0 1AA#7FFF000000006720
(1735311472.097582) vcan0 1B0#000F0000000166
(1735311472.097586) vcan0 1D0#000000000000000A
(1735311472.097589) vcan0 166#D0320009
(1735311472.102014) vcan0 158#000000000000000A
(1735311472.106667) vcan0 161#000005500108000D
(1735311472.108159) vcan0 191#010090A1410030
(1735311472.109796) vcan0 133#0000000098
(1735311472.109803) vcan0 136#000200000000001B
(1735311472.109807) vcan0 13A#0000000000000019
(1735311472.109811) vcan0 13F#000000050000001F
(1735311472.109815) vcan0 164#0000C01AA8000031
(1735311472.109818) vcan0 17C#0000000010000012
(1735311472.109822) vcan0 18E#00005C
(1735311472.109825) vcan0 183#0000000E0000101C
(1735311472.109829) vcan0 143#6B6B00D1
(1735311472.109832) vcan0 039#000C
(1735311472.109837) vcan0 095#800007F400000008
(1735311472.109841) vcan0 166#D0320018
(1735311472.109844) vcan0 158#0000000000000019
(1735311472.109848) vcan0 161#000005500108001C
(1735311472.109852) vcan0 191#010090A1410003
(1735311472.109855) vcan0 133#00000000A7
(1735311472.109859) vcan0 136#000200000000002A
(1735311472.109862) vcan0 13A#0000000000000028
(1735311472.109866) vcan0 13F#000000050000002E
(1735311472.111897) vcan0 244#0000000149
(1735311472.112599) vcan0 164#0000C01AA8000004
(1735311472.112748) vcan0 17C#0000000010000021
(1735311472.112754) vcan0 18E#00006B
(1735311472.112757) vcan0 1CF#80050000001E
(1735311472.112761) vcan0 1DC#0200001B
(1735311472.112765) vcan0 183#0000000A0000102F
(1735311472.112769) vcan0 143#6B6B00E0
(1735311472.115633) vcan0 095#800007F400000017
(1735311472.115660) vcan0 1A4#000000080000003E
(1735311472.115665) vcan0 1AA#7FFF00000000683E
(1735311472.115669) vcan0 1B0#000F0000000175
(1735311472.116924) vcan0 1D0#000000000000000A
(1735311472.118909) vcan0 166#D0320027
(1735311472.121992) vcan0 158#0000000000000028
(1735311472.122091) vcan0 161#000005500108002B
(1735311472.122098) vcan0 191#010090A1410012
(1735311472.122103) vcan0 133#00000000B6
(1735311472.122108) vcan0 136#0002000000000039
(1735311472.122111) vcan0 13A#0000000000000037
(1735311472.122115) vcan0 039#001B
(1735311472.122118) vcan0 13F#000000050000003D
(1735311472.122122) vcan0 164#0000C01AA8000013
(1735311472.122125) vcan0 17C#0000000010000030
(1735311472.122129) vcan0 18E#00007A
(1735311472.122133) vcan0 294#040B0002CF5A001D
(1735311472.122136) vcan0 21E#03E83745220610
(1735311472.122140) vcan0 309#0000000000000093
(1735311472.122145) vcan0 428#01040000521C10
(1735311472.122149) vcan0 405#000004000000001A
(1735311472.123409) vcan0 183#0000000700001031
(1735311472.123487) vcan0 143#6B6B00FF
(1735311472.126165) vcan0 095#800007F400000026
(1735311472.127330) vcan0 244#0000000123
(1735311472.128237) vcan0 166#D0320036
(1735311472.130793) vcan0 158#0000000000000037
(1735311472.132933) vcan0 161#000005500108003A
(1735311472.132939) vcan0 191#010090A1410021
(1735311472.132943) vcan0 133#0000000089
(1735311472.132946) vcan0 136#000200000000000C
(1735311472.132950) vcan0 13A#000000000000000A
(1735311472.132953) vcan0 13F#0000000500000000
(1735311472.132957) vcan0 164#0000C01AA8000022
(1735311472.132960) vcan0 17C#0000000010000003
(1735311472.132964) vcan0 18E#00004D
(1735311472.132968) vcan0 1CF#80050000002D
(1735311472.132971) vcan0 1DC#0200002A
(1735311472.132975) vcan0 183#0000000D0000100E
(1735311472.132988) vcan0 143#6B6B00C2
(1735311472.135695) vcan0 039#002A
(1735311472.137190) vcan0 095#800007F400000035
(1735311472.137197) vcan0 1A4#0000000800000001
(1735311472.137201) vcan0 1AA#7FFF000000006801
(1735311472.137205) vcan0 1B0#000F0000000148
(1735311472.137210) vcan0 1D0#000000000000000A
(1735311472.141113) vcan0 166#D0320009
(1735311472.142176) vcan0 244#00000001A3
(1735311472.142499) vcan0 158#000000000000000A
(1735311472.142504) vcan0 161#000005500108000D
(1735311472.142508) vcan0 191#010090A1410030
(1735311472.142512) vcan0 133#0000000098
(1735311472.142515) vcan0 136#000200000000001B
(1735311472.142520) vcan0 13A#0000000000000019
(1735311472.142524) vcan0 13F#000000050000001F
(1735311472.142528) vcan0 164#0000C01AA9000030
(1735311472.142531) vcan0 17C#0000000010000012
(1735311472.142535) vcan0 18E#00005C
(1735311472.142538) vcan0 183#0000000900001011
(1735311472.142542) vcan0 143#6B6B00D1
(1735311472.144886) vcan0 095#800007F400000008
(1735311472.150235) vcan0 166#D0320018
(1735311472.151161) vcan0 158#0000000000000019
(1735311472.151166) vcan0 161#000005500108001C
(1735311472.151170) vcan0 191#010090A1410003
(1735311472.151173) vcan0 133#00000000A7
(1735311472.151177) vcan0 136#000200000000002A
(1735311472.151181) vcan0 13A#0000000000000028
(1735311472.151185) vcan0 13F#000000050000002E
(1735311472.151189) vcan0 164#0000C01AA8000004
(1735311472.151192) vcan0 17C#0000000010000021
(1735311472.151196) vcan0 18E#00006B
(1735311472.151199) vcan0 1CF#80050000003C
(1735311472.151203) vcan0 1DC#02000039
(1735311472.152976) vcan0 183#0000000E0000102B
(1735311472.154470) vcan0 143#6B6B00E0
(1735311472.154478) vcan0 039#0039
(1735311472.156585) vcan0 244#0000000118
(1735311472.158185) vcan0 095#800007F400000017
(1735311472.158199) vcan0 1A4#0000000800000010
(1735311472.158203) vcan0 1AA#7FFF000000006711
(1735311472.158207) vcan0 1B0#000F0000000157
(1735311472.158211) vcan0 1D0#000000000000000A
(1735311472.158215) vcan0 166#D0320027
(1735311472.159812) vcan0 158#0000000000000028
(1735311472.159880) vcan0 161#000005500108002B
(1735311472.159885) vcan0 191#010090A1410012
(1735311472.159889) vcan0 133#00000000B6
(1735311472.159892) vcan0 136#0002000000000039
(1735311472.159896) vcan0 13A#0000000000000037
(1735311472.159900) vcan0 13F#000000050000003D
(1735311472.161045) vcan0 164#0000C01AA8000013
(1735311472.161125) vcan0 17C#0000000010000030
(1735311472.161131) vcan0 18E#00007A
(1735311472.161135) vcan0 294#040B0002CF5A002C
(1735311472.161141) vcan0 21E#03E8374522062F
(1735311472.165709) vcan0 183#0000000A0000103E
(1735311472.165733) vcan0 143#6B6B00FF
(1735311472.165737) vcan0 095#800007F400000026
(1735311472.169698) vcan0 039#000C
(1735311472.170102) vcan0 244#000000011E
(1735311472.172594) vcan0 166#D0320036
(1735311472.174175) vcan0 158#0000000000000037
(1735311472.176044) vcan0 161#000005500108003A
(1735311472.176052) vcan0 191#010090A1410021
(1735311472.176056) vcan0 133#0000000089
(1735311472.176060) vcan0 136#000200000000000C
(1735311472.176063) vcan0 13A#000000000000000A
(1735311472.176067) vcan0 13F#0000000500000000
(1735311472.176072) vcan0 164#0000C01AA8000022
(1735311472.176076) vcan0 17C#0000000010000003
(1735311472.176080) vcan0 18E#00004D
(1735311472.176084) vcan0 1CF#80050000000F
(1735311472.176088) vcan0 1DC#0200000C
(1735311472.176209) vcan0 183#0000000700001004
(1735311472.176217) vcan0 143#6B6B00C2
(1735311472.176220) vcan0 333#0000000000001E
(1735311472.176224) vcan0 095#800007F400000035
(1735311472.176227) vcan0 1A4#000000080000002F
(1735311472.179062) vcan0 1AA#7FFF000000006720
(1735311472.183125) vcan0 1B0#000F0000000166
(1735311472.183135) vcan0 1D0#000000000000000A
(1735311472.183139) vcan0 166#D0320009
(1735311472.183143) vcan0 158#000000000000000A
(1735311472.183146) vcan0 161#000005500108000D
(1735311472.183150) vcan0 191#010090A1410030
(1735311472.183153) vcan0 133#0000000098
(1735311472.183157) vcan0 136#000200000000001B
(1735311472.183160) vcan0 13A#0000000000000019
(1735311472.183164) vcan0 13F#000000050000001F
(1735311472.183167) vcan0 164#0000C01AA8000031
(1735311472.183171) vcan0 039#001B
(1735311472.183174) vcan0 17C#0000000010000012
(1735311472.183179) vcan0 18E#00005C
(1735311472.183182) vcan0 183#0000000D0000101D
(1735311472.183186) vcan0 143#6B6B00D1
(1735311472.185273) vcan0 244#000000013C
(1735311472.185639) vcan0 095#800007F400000008
(1735311472.188630) vcan0 166#D0320018
(1735311472.190522) vcan0 158#0000000000000019
(1735311472.191609) vcan0 161#000005500108001C
(1735311472.191614) vcan0 191#010090A1410003
(1735311472.191618) vcan0 133#00000000A7
(1735311472.191622) vcan0 136#000200000000002A
(1735311472.191625) vcan0 13A#0000000000000028
(1735311472.191629) vcan0 13F#000000050000002E
(1735311472.191632) vcan0 164#0000C01AA8000004
(1735311472.191636) vcan0 17C#0000000010000021
(1735311472.191639) vcan0 18E#00006B
(1735311472.191643) vcan0 1CF#80050000001E
(1735311472.191648) vcan0 1DC#0200001B
(1735311472.191652) vcan0 320#000012
(1735311472.191656) vcan0 324#7465000000000E1A
(1735311472.191659) vcan0 37C#FD00FD00097F001A
(1735311472.193708) vcan0 183#0000000900001020
(1735311472.193722) vcan0 143#6B6B00E0
(1735311472.193726) vcan0 039#002A
(1735311472.193730) vcan0 305#8017
(1735311472.198821) vcan0 095#800007F400000017
(1735311472.198850) vcan0 1A4#000000080000003E
(1735311472.198854) vcan0 1AA#7FFF00000000683E
(1735311472.198858) vcan0 1B0#000F0000000175
(1735311472.198862) vcan0 1D0#000000000000000A
(1735311472.198865) vcan0 166#D0320027
(1735311472.198871) vcan0 158#0000000000000028
(1735311472.198874) vcan0 161#000005500108002B
(1735311472.198878) vcan0 191#010090A1410012
(1735311472.198984) vcan0 244#0000000128
(1735311472.201149) vcan0 133#00000000B6
(1735311472.202928) vcan0 136#0002000000000039
(1735311472.206852) vcan0 13A#0000000000000037
(1735311472.209188) vcan0 13F#000000050000003D
(1735311472.209195) vcan0 164#0000C01AA8000013
(1735311472.209199) vcan0 17C#0000000010000030
(1735311472.209202) vcan0 18E#00007A
(1735311472.209206) vcan0 294#040B0002CF5A003B
(1735311472.209210) vcan0 21E#03E8374522063E
(1735311472.209214) vcan0 183#0000000E0000103A
(1735311472.209217) vcan0 143#6B6B00FF
(1735311472.209221) vcan0 095#800007F400000026
(1735311472.209224) vcan0 166#D0320036
(1735311472.209228) vcan0 158#0000000000000037
(1735311472.209231) vcan0 161#000005500108003A
(1735311472.209235) vcan0 191#010090A1410021
(1735311472.209238) vcan0 039#0039
(1735311472.209242) vcan0 133#0000000089
(1735311472.210988) vcan0 136#000200000000000C
(1735311472.212678) vcan0 13A#000000000000000A
(1735311472.212686) vcan0 13F#0000000500000000
(1735311472.212690) vcan0 164#0000C01AA8000022
(1735311472.212693) vcan0 17C#0000000010000003
(1735311472.212697) vcan0 18E#00004D
(1735311472.212701) vcan0 1CF#80050000002D
(1735311472.212705) vcan0 1DC#0200002A
(1735311472.212708) vcan0 183#0000000A00001001
(1735311472.212712) vcan0 143#6B6B00C2
(1735311472.217008) vcan0 244#00000001CF
(1735311472.218556) vcan0 095#800007F400000035
(1735311472.218573) vcan0 1A4#0000000800000001
(1735311472.218577) vcan0 1AA#7FFF000000006801
(1735311472.218581) vcan0 1B0#000F0000000148
(1735311472.218584) vcan0 1D0#000000000000000A
(1735311472.218588) vcan0 166#D0320009
(1735311472.218592) vcan0 158#000000000000000A
(1735311472.222084) vcan0 161#000005500108000D
(1735311472.222102) vcan0 191#010090A1410030
(1735311472.222106) vcan0 133#0000000098
(1735311472.222110) vcan0 136#000200000000001B
(1735311472.222113) vcan0 13A#0000000000000019
(1735311472.222117) vcan0 13F#000000050000001F
(1735311472.222121) vcan0 164#0000C01AA8000031
(1735311472.222124) vcan0 17C#0000000010000012
(1735311472.222129) vcan0 18E#00005C
(1735311472.222132) vcan0 309#00000000000000A2
(1735311472.225436) vcan0 183#0000000700001013
(1735311472.225449) vcan0 143#6B6B00D1
(1735311472.225453) vcan0 039#000C
(1735311472.225457) vcan0 095#800007F400000008
(1735311472.229173) vcan0 166#D0320018
(1735311472.229194) vcan0 158#0000000000000019
(1735311472.229197) vcan0 161#000005500108001C
(1735311472.229201) vcan0 191#010090A1410003
(1735311472.230018) vcan0 133#00000000A7
(1735311472.230023) vcan0 136#000200000000002A
(1735311472.230027) vcan0 13A#0000000000000028
(1735311472.230030) vcan0 13F#000000050000002E
(1735311472.230034) vcan0 164#0000C01AA8000004
(1735311472.235307) vcan0 17C#0000000010000021
(1735311472.235329) vcan0 18E#00006B
(1735311472.235333) vcan0 1CF#80050000003C
(1735311472.235336) vcan0 1DC#02000039
(1735311472.235340) vcan0 183#0000000500001024
(1735311472.235343) vcan0 143#6B6B00E0
(1735311472.235347) vcan0 095#800007F400000017
(1735311472.236748) vcan0 1A4#0000000800000010
(1735311472.236773) vcan0 1AA#7FFF000000006711
(1735311472.236777) vcan0 1B0#000F0000000157
(1735311472.236780) vcan0 1D0#000000000000000A
(1735311472.236784) vcan0 039#001B
(1735311472.236775) vcan0 244#0000000118
(1735311472.239808) vcan0 166#D0320027
(1735311472.241418) vcan0 158#0000000000000028
(1735311472.241423) vcan0 161#000005500108002B
(1735311472.241427) vcan0 191#010090A1410012
(1735311472.241431) vcan0 133#00000000B6
(1735311472.241435) vcan0 136#0002000000000039
(1735311472.241438) vcan0 13A#0000000000000037
(1735311472.241443) vcan0 13F#000000050000003D
(1735311472.241447) vcan0 164#0000C01AA8000013
(1735311472.241450) vcan0 17C#0000000010000030
(1735311472.241454) vcan0 18E#00007A
(1735311472.241458) vcan0 294#040B0002CF5A000E
(1735311472.241462) vcan0 21E#03E83745220601
(1735311472.246086) vcan0 183#0000000300001035
(1735311472.247779) vcan0 143#6B6B00FF
(1735311472.247787) vcan0 095#800007F400000026
(1735311472.249790) vcan0 166#D0320036
(1735311472.249798) vcan0 158#0000000000000037
(1735311472.249802) vcan0 161#000005500108003A
(1735311472.249806) vcan0 191#010090A1410021
(1735311472.249810) vcan0 133#0000000089
(1735311472.249816) vcan0 136#000200000000000C
(1735311472.249820) vcan0 13A#000000000000000A
(1735311472.249824) vcan0 13F#0000000500000000
(1735311472.252140) vcan0 244#00000001A6
(1735311472.252916) vcan0 164#0000C01AA8000022
(1735311472.252936) vcan0 17C#0000000010000003
(1735311472.252942) vcan0 18E#00004D
(1735311472.252946) vcan0 1CF#80050000000F
(1735311472.252951) vcan0 1DC#0200000C
(1735311472.252954) vcan0 183#0000000A00001001
(1735311472.252958) vcan0 039#002A
(1735311472.252961) vcan0 143#6B6B00C2
(1735311472.254848) vcan0 095#800007F400000035
(1735311472.257955) vcan0 1A4#000000080000002F
(1735311472.262181) vcan0 1AA#7FFF000000006720
(1735311472.264649) vcan0 1B0#000F0000000166
(1735311472.266067) vcan0 244#0000000176
(1735311472.266682) vcan0 1D0#000000000000000A
(1735311472.268689) vcan0 166#D0320009
(1735311472.268697) vcan0 158#000000000000000A
(1735311472.268701) vcan0 161#000005500108000D
(1735311472.268705) vcan0 191#010090A1410030
(1735311472.268709) vcan0 133#0000000098
(1735311472.268712) vcan0 136#000200000000001B
(1735311472.268716) vcan0 13A#0000000000000019
(1735311472.268719) vcan0 13F#000000050000001F
(1735311472.268723) vcan0 164#0000C01AA8000031
(1735311472.268727) vcan0 17C#0000000010000012
(1735311472.268730) vcan0 18E#00005C
(1735311472.268734) vcan0 183#0000000700001013
(1735311472.268737) vcan0 143#6B6B00D1
(1735311472.268742) vcan0 095#800007F400000008
(1735311472.268746) vcan0 039#0039
(1735311472.268750) vcan0 166#D0320018
(1735311472.268754) vcan0 158#0000000000000019
(1735311472.268758) vcan0 161#000005500108001C
(1735311472.271535) vcan0 191#010090A1410003
(1735311472.271563) vcan0 133#00000000A7
(1735311472.271567) vcan0 136#000200000000002A
(1735311472.271571) vcan0 13A#0000000000000028
(1735311472.271575) vcan0 13F#000000050000002E
(1735311472.271578) vcan0 164#0000C01AA8000004
(1735311472.271582) vcan0 17C#0000000010000021
(1735311472.271585) vcan0 18E#00006B
(1735311472.271590) vcan0 1CF#80050000001E
(1735311472.271594) vcan0 1DC#0200001B
(1735311472.273875) vcan0 183#0000000500001024
(1735311472.276066) vcan0 143#6B6B00E0
(1735311472.276074) vcan0 333#0000000000002D
(1735311472.276078) vcan0 095#800007F400000017
(1735311472.276081) vcan0 1A4#000000080000003E
(1735311472.276085) vcan0 1AA#7FFF00000000683E
(1735311472.276089) vcan0 1B0#000F0000000175
(1735311472.276092) vcan0 1D0#000000000000000A
(1735311472.277745) vcan0 166#D0320027
(1735311472.280663) vcan0 158#0000000000000028
(1735311472.280694) vcan0 244#000000011B
(1735311472.282940) vcan0 161#000005500108002B
(1735311472.284481) vcan0 191#010090A1410012
(1735311472.284489) vcan0 133#00000000B6
(1735311472.284493) vcan0 136#0002000000000039
(1735311472.284496) vcan0 13A#0000000000000037
(1735311472.284500) vcan0 13F#000000050000003D
(1735311472.284504) vcan0 164#0000C01AA8000013
(1735311472.284507) vcan0 17C#0000000010000030
(1735311472.284510) vcan0 18E#00007A
(1735311472.284514) vcan0 294#040B0002CF5A001D
(1735311472.284517) vcan0 21E#03E83745220610
(1735311472.284521) vcan0 183#0000000B0000103D
(1735311472.284524) vcan0 143#6B6B00FF
(1735311472.288224) vcan0 095#800007F400000026
(1735311472.290099) vcan0 039#000C
(1735311472.290106) vcan0 166#D0320036
(1735311472.290116) vcan0 158#0000000000000037
(1735311472.290120) vcan0 161#000005500108003A
(1735311472.290124) vcan0 191#010010A1410029
(1735311472.290127) vcan0 133#0000000089
(1735311472.290131) vcan0 136#000200000000000C
(1735311472.290134) vcan0 13A#000000000000000A
(1735311472.290138) vcan0 13F#0000000500000000
(1735311472.290141) vcan0 164#0000C01AA8000022
(1735311472.292636) vcan0 17C#0000000010000003
(1735311472.294377) vcan0 18E#00004D
(1735311472.294385) vcan0 1CF#80050000002D
(1735311472.294389) vcan0 1DC#0200002A
(1735311472.294393) vcan0 320#000021
(1735311472.294397) vcan0 324#7465000000000E29
(1735311472.294400) vcan0 37C#FD00FD00097F0029
(1735311472.294404) vcan0 183#0000000800001003
(1735311472.294407) vcan0 143#6B6B00C2
(1735311472.296641) vcan0 095#800007F400000035
(1735311472.296681) vcan0 244#00000001E7
(1735311472.298619) vcan0 1A4#0000000800000001
(1735311472.298626) vcan0 1AA#7FFF000000006801
(1735311472.298630) vcan0 1B0#000F0000000148
(1735311472.298634) vcan0 1D0#000000000000000A
(1735311472.298637) vcan0 166#D0320009
(1735311472.298641) vcan0 158#000000000000000A
(1735311472.301081) vcan0 161#000005500108000D
(1735311472.302315) vcan0 039#001B
(1735311472.302325) vcan0 191#010010A1410038
(1735311472.302329) vcan0 133#0000000098
(1735311472.302333) vcan0 136#000200000000001B
(1735311472.302337) vcan0 13A#0000000000000019
(1735311472.302341) vcan0 13F#000000050000001F
(1735311472.302345) vcan0 164#0000C01AA8000031
(1735311472.302349) vcan0 17C#0000000010000012
(1735311472.302354) vcan0 18E#00005C
(1735311472.302358) vcan0 305#8026
(1735311472.302362) vcan0 183#0000000600001014
(1735311472.303628) vcan0 143#6B6B00D1
(1735311472.305631) vcan0 095#800007F400000008
(1735311472.307325) vcan0 166#D0320018
(1735311472.310130) vcan0 158#0000000000000019
(1735311472.313218) vcan0 244#0000000159
(1735311472.317762) vcan0 161#000005500108001C
(1735311472.322601) vcan0 191#010010A141000B
(1735311472.324024) vcan0 133#00000000A7
(1735311472.324032) vcan0 136#000200000000002A
(1735311472.324036) vcan0 13A#0000000000000028
(1735311472.324041) vcan0 13F#000000050000002E
(1735311472.324044) vcan0 164#0000C01AA8000004
(1735311472.324048) vcan0 17C#0000000010000021
(1735311472.324051) vcan0 18E#00006B
(1735311472.324055) vcan0 1CF#80050000003C
(1735311472.324059) vcan0 1DC#02000039
(1735311472.324063) vcan0 183#0000000C0000102D
(1735311472.324068) vcan0 143#6B6B00E0
(1735311472.324072) vcan0 039#002A
(1735311472.324076) vcan0 095#800007F400000017
(1735311472.324080) vcan0 1A4#0000000800000010
